!Keysight Technologies,P5024B,MY61400385,A.19.30.21
!Date: Wednesday, November 12, 2025 11:23:40
!Correction: S11(C  4-Port  ) 
!S12(C  4-Port  ) 
!S13(C  4-Port  ) 
!S14(C  4-Port  ) 
!S21(C  4-Port  ) 
!S22(C  4-Port  ) 
!S23(C  4-Port  ) 
!S24(C  4-Port  ) 
!S31(C  4-Port  ) 
!S32(C  4-Port  ) 
!S33(C  4-Port  ) 
!S34(C  4-Port  ) 
!S41(C  4-Port  ) 
!S42(C  4-Port  ) 
!S43(C  4-Port  ) 
!S44(C  4-Port  ) 
!S4P File: Measurements: <S11,S12,S13,S14>,
!<S21,S22,S23,S24>,
!<S31,S32,S33,S34>,
!<S41,S42,S43,S44>:
# Hz S  dB   R 50
10000000 -0.22390722 -24.609741 -86.673431 76.912346 -76.763268 -115.01437 -90.660591 105.6362
-77.746162 167.1465 -10.695993 -3.0174434 -12.314928 -2.4317281 -12.976917 -2.5306177
-81.109276 -123.45161 -12.336434 -2.5646303 -11.905714 -3.037128 -12.32826 -2.5647709
-85.908592 49.743488 -12.982782 -2.6195309 -12.302197 -2.5023012 -10.753687 -2.9347403
20000000 -0.34290871 -47.626099 -84.047127 96.817894 -77.302322 24.874573 -87.373787 -1.5307726
-82.297478 -21.357134 -10.709104 -5.7878809 -12.32634 -5.1935301 -12.979882 -5.1574159
-76.551193 -29.260439 -12.311965 -5.067728 -11.909184 -6.1345429 -12.318851 -5.1687956
-84.985199 -67.674164 -12.962949 -5.1517782 -12.323618 -5.2306066 -10.728611 -5.8247662
30000000 -0.47681749 -69.069008 -88.492744 -145.8327 -82.694969 -56.041138 -80.068817 -62.643547
-85.017883 166.47606 -10.735804 -8.3043051 -12.339244 -7.8036542 -12.987033 -7.8970308
-75.640129 165.95953 -12.333386 -7.7462344 -11.935091 -9.1844606 -12.32491 -7.8773766
-77.753754 137.60886 -12.980828 -7.8559933 -12.334331 -7.9102674 -10.751446 -8.6275272
40000000 -0.6300295 -88.889404 -77.493217 13.350089 -79.548538 135.26944 -76.526703 -3.6139944
-77.780418 147.8454 -10.718714 -11.724919 -12.348399 -10.464002 -13.02276 -10.578976
-82.142876 112.38027 -12.342957 -10.459085 -11.861696 -11.909927 -12.356523 -10.659917
-73.998375 65.855263 -13.006989 -10.51265 -12.340771 -10.568312 -10.753168 -11.872252
50000000 -0.77864188 -106.51158 -80.535736 -124.14102 -89.374481 128.12965 -78.50428 -37.699543
-67.105675 80.450592 -10.677284 -14.34844 -12.361459 -12.988239 -12.996843 -13.050541
-66.792114 131.51726 -12.338425 -12.948136 -11.857607 -15.23698 -12.339821 -13.149569
-72.671944 136.84271 -12.99084 -13.055813 -12.344761 -13.127618 -10.705699 -14.637635
60000000 -0.90746206 -122.60721 -83.709953 -116.34233 -92.613449 -0.10255394 -89.567177 45.114929
-70.201141 72.804459 -10.649798 -17.263218 -12.345504 -15.611797 -12.987854 -15.629024
-70.303566 167.22598 -12.355226 -15.461931 -11.785102 -18.065527 -12.337787 -15.698497
-71.615677 164.351 -12.997738 -15.586889 -12.339736 -15.715765 -10.677292 -17.406313
70000000 -1.0184197 -137.12621 -82.750961 155.62694 -73.954727 68.160416 -78.608635 33.69725
-70.403488 -130.40627 -10.67251 -19.942389 -12.361829 -17.96916 -13.022885 -18.080809
-69.624962 -151.19327 -12.378182 -18.086197 -11.799925 -21.12816 -12.360249 -18.211866
-71.718208 176.76996 -13.02302 -18.155649 -12.350054 -18.181213 -10.734744 -19.95871
80000000 -1.1275253 -150.10933 -83.136536 74.589432 -86.239716 75.719643 -77.310249 59.39616
-72.916107 -10.873092 -10.648167 -22.89889 -12.395174 -20.639339 -13.064868 -20.705994
-70.487755 -66.094818 -12.386509 -20.583195 -11.785337 -24.252033 -12.398549 -20.849785
-70.224907 -75.276695 -13.027645 -20.656157 -12.388353 -20.845287 -10.689106 -23.038456
90000000 -1.2113749 -162.03062 -72.876831 81.356316 -83.035477 146.46852 -79.696442 -168.30061
-61.7966 -136.38928 -10.585821 -25.492773 -12.397696 -23.079018 -13.033611 -23.358952
-65.200012 -140.44556 -12.405082 -23.083982 -11.840632 -27.33366 -12.383697 -23.560652
-64.601837 -143.49663 -13.049619 -23.186209 -12.388424 -23.359858 -10.637053 -25.829716
100000000 -1.2960311 -173.30896 -76.634727 159.02765 -87.737305 -72.526947 -80.670235 -65.287025
-75.274811 -79.333321 -10.640221 -28.520462 -12.398825 -25.687662 -13.05155 -25.684834
-63.77364 -103.30145 -12.403211 -25.740829 -11.78863 -30.221094 -12.39034 -25.909157
-67.473083 -69.130074 -13.062474 -25.899651 -12.388272 -25.998781 -10.656966 -28.932182
110000000 -1.384747 176.20834 -75.758072 142.62723 -73.271149 88.263237 -76.02935 -55.434856
-67.015121 62.269318 -10.598346 -31.217346 -12.410103 -28.31546 -13.053885 -28.415062
-61.992264 35.199715 -12.410577 -28.290247 -11.717834 -33.32613 -12.397846 -28.565018
-64.261414 15.634735 -13.071783 -28.410561 -12.399817 -28.636269 -10.627614 -31.557817
120000000 -1.4240551 166.21338 -79.595154 -176.55667 -80.883049 120.90334 -84.796303 -178.45876
-62.354725 52.996704 -10.560148 -34.262501 -12.402628 -30.837017 -13.038781 -30.968922
-62.995178 55.326313 -12.379978 -30.932619 -11.732924 -36.320351 -12.388507 -31.150841
-61.786785 55.917187 -13.019168 -31.026876 -12.396788 -31.141636 -10.61837 -34.328686
130000000 -1.4826384 156.79785 -73.779037 -21.417259 -83.490906 -21.091751 -75.829391 -55.040424
-73.461128 111.95554 -10.600989 -37.058346 -12.409163 -33.269917 -13.062835 -33.426899
-74.139923 -32.290398 -12.423882 -33.359486 -11.706917 -38.879379 -12.404358 -33.619648
-66.052956 -57.100849 -13.075785 -33.487617 -12.398402 -33.634605 -10.606877 -37.365063
140000000 -1.5372199 147.99545 -82.383057 47.288109 -79.761566 -154.08783 -107.38881 -149.127
-68.052155 125.98919 -10.569856 -39.851593 -12.431138 -35.913246 -13.07515 -36.073769
-64.915558 58.731678 -12.44314 -35.953259 -11.683781 -42.116909 -12.404157 -36.288368
-69.261559 69.056419 -13.092428 -36.087433 -12.425006 -36.285461 -10.63953 -39.957958
150000000 -1.5645461 139.45909 -79.48925 155.73694 -81.386208 114.01196 -88.614792 -58.013203
-60.410484 -36.539196 -10.546115 -42.87225 -12.441743 -38.466274 -13.116328 -38.644352
-56.876766 -80.165642 -12.450815 -38.464516 -11.682015 -45.164188 -12.451271 -38.820587
-59.739544 -70.482956 -13.104136 -38.630997 -12.430643 -38.821854 -10.598763 -43.226864
160000000 -1.6138128 131.24582 -84.875702 31.448811 -78.866058 52.648998 -87.106735 30.585573
-58.974518 102.13778 -10.539286 -45.598331 -12.460046 -41.00972 -13.13763 -41.213005
-68.299828 55.51368 -12.47524 -41.02985 -11.631079 -48.018093 -12.465728 -41.363258
-62.810081 60.913151 -13.114173 -41.136749 -12.438298 -41.39473 -10.573658 -45.761639
170000000 -1.6779596 123.45776 -79.009232 135.29285 -75.062378 -50.042141 -76.39241 -147.33302
-61.977818 -141.34186 -10.542651 -48.424358 -12.461767 -43.638294 -13.126284 -43.786549
-58.508141 -176.79869 -12.472519 -43.711842 -11.579618 -51.05587 -12.4399 -44.023777
-58.334099 174.8904 -13.117349 -43.913857 -12.429791 -44.092922 -10.515853 -48.826454
180000000 -1.7342626 116.00712 -84.36161 24.973438 -80.141777 -56.917103 -88.293358 -20.639168
-61.549843 -133.64334 -10.482603 -51.043976 -12.465012 -46.140965 -13.128897 -46.383469
-56.635078 177.8735 -12.471021 -46.216808 -11.551369 -54.162651 -12.460364 -46.688232
-58.202156 179.68839 -13.117083 -46.331493 -12.437758 -46.550224 -10.529379 -52.055046
190000000 -1.7999587 108.77729 -99.775658 -134.67485 -76.413124 -130.47169 -76.935402 -164.69276
-61.666527 132.89931 -10.502948 -53.963612 -12.511614 -48.71418 -13.129066 -48.841408
-59.912804 164.22377 -12.477911 -48.749504 -11.514516 -56.799187 -12.479836 -49.124268
-62.643261 142.32091 -13.124202 -48.908398 -12.49328 -49.123142 -10.492209 -54.531269
200000000 -1.8305353 101.95396 -75.784836 163.51201 -83.126129 -167.70828 -79.748322 161.31317
-58.732861 172.93791 -10.48528 -56.724468 -12.505231 -51.277863 -13.15158 -51.491081
-56.303162 165.22278 -12.493762 -51.224697 -11.501471 -59.853863 -12.487757 -51.823982
-54.795986 154.72231 -13.146927 -51.400314 -12.491326 -51.761669 -10.471441 -57.334248
210000000 -1.7879062 95.13932 -81.943222 132.46065 -85.840042 99.153915 -81.271233 -52.150261
-65.031654 108.13455 -10.466566 -59.350075 -12.52282 -53.750732 -13.166912 -54.050789
-56.613472 115.38796 -12.532012 -53.813602 -11.47346 -62.768673 -12.507021 -54.357445
-57.344563 115.55645 -13.169723 -53.980652 -12.514598 -54.229053 -10.465668 -60.090496
220000000 -1.7769836 88.327423 -73.939957 -21.323 -73.636955 59.078533 -77.990845 -61.515656
-56.393906 93.187851 -10.44502 -62.357311 -12.546617 -56.277847 -13.173892 -56.498875
-59.111305 116.05565 -12.552644 -56.350197 -11.383208 -65.260597 -12.528744 -56.957165
-58.476311 92.386917 -13.187872 -56.509129 -12.527009 -56.856407 -10.42699 -63.005619
230000000 -1.7270012 81.365173 -79.797867 87.842377 -105.71491 134.01721 -94.747398 -149.94897
-53.22834 73.976311 -10.41481 -65.03244 -12.548756 -59.040081 -13.213822 -59.11713
-54.00391 92.146622 -12.534303 -58.95253 -11.355457 -68.840149 -12.540286 -59.417141
-51.490986 80.318558 -13.18781 -59.107059 -12.526638 -59.587505 -10.399368 -65.829956
240000000 -1.6922479 74.705551 -77.447342 175.19788 -79.73484 128.62704 -76.72982 -118.22285
-51.503345 71.508598 -10.399794 -68.125099 -12.565942 -61.417362 -13.200548 -61.664669
-49.618477 95.383301 -12.555569 -61.488705 -11.333495 -71.328651 -12.520265 -62.020332
-48.724167 92.064301 -13.199269 -61.752586 -12.540702 -62.014717 -10.360183 -68.439957
250000000 -1.6877762 67.92572 -85.995018 18.644365 -77.28553 92.856705 -79.951569 20.052362
-45.846802 57.747787 -10.331285 -70.683411 -12.582121 -63.964607 -13.217374 -64.242249
-47.830524 60.247425 -12.560738 -64.016449 -11.285027 -74.344475 -12.547622 -64.722908
-47.231777 45.630703 -13.215252 -64.210503 -12.567354 -64.513466 -10.319005 -71.394791
260000000 -1.6491733 61.383457 -84.392967 134.83435 -73.291046 -60.476887 -82.717361 -33.290478
-45.017124 42.47578 -10.337939 -73.526016 -12.612143 -66.526848 -13.228778 -66.851006
-46.138355 55.005482 -12.583131 -66.534348 -11.253848 -76.904716 -12.569817 -67.226166
-45.478966 45.268745 -13.226361 -66.77195 -12.58372 -67.138802 -10.294564 -74.28614
270000000 -1.6576545 54.770664 -75.85601 104.06509 -75.666687 127.0785 -80.667374 -83.240707
-43.564106 32.185532 -10.298841 -76.05468 -12.615745 -69.04039 -13.260162 -69.25399
-43.052105 48.872898 -12.623137 -68.980255 -11.249657 -80.191826 -12.587994 -69.613144
-43.413925 37.14893 -13.269075 -69.267662 -12.578535 -69.7649 -10.302014 -76.826492
280000000 -1.6225442 48.34885 -73.847725 93.670471 -77.843697 12.915263 -78.160843 -4.9501252
-42.139793 14.371653 -10.273106 -78.667465 -12.632912 -71.637955 -13.273611 -71.894897
-43.04549 30.993876 -12.632018 -71.615669 -11.166225 -82.495186 -12.601876 -72.371384
-42.675282 22.029921 -13.256373 -71.889236 -12.602865 -72.279343 -10.244052 -79.601776
290000000 -1.6405801 41.767826 -80.700722 121.06055 -82.245369 65.934151 -78.444534 -96.617111
-39.85321 -0.60000646 -10.214399 -81.975899 -12.659284 -74.280518 -13.292883 -74.504303
-40.714222 14.745783 -12.618256 -74.289986 -11.158965 -85.486244 -12.618654 -74.894386
-40.535179 5.6808801 -13.267946 -74.599777 -12.627271 -74.912849 -10.266106 -82.153397
300000000 -1.6263329 35.27634 -90.937996 -80.591049 -73.997353 -3.7796893 -88.632484 -11.331056
-38.324265 -8.4563951 -10.230309 -84.18721 -12.661498 -76.740044 -13.30882 -76.997337
-38.741627 1.9012748 -12.641132 -76.786324 -11.073957 -88.296463 -12.639234 -77.401161
-38.514713 -7.7700009 -13.278734 -77.043564 -12.631253 -77.442902 -10.230015 -84.74202
310000000 -1.6279082 28.829538 -88.257019 33.514317 -81.926483 -115.65133 -75.813721 -34.765617
-37.211342 -25.954653 -10.193839 -87.050774 -12.676872 -79.281181 -13.333719 -79.590858
-37.643879 -13.992592 -12.676382 -79.34317 -11.048903 -91.337097 -12.653186 -80.076569
-37.435684 -22.725351 -13.308678 -79.532112 -12.638433 -80.028816 -10.195311 -87.468513
320000000 -1.655881 22.505999 -76.444382 -155.87787 -88.691246 77.900696 -78.521004 179.93002
-35.724041 -35.032566 -10.11997 -89.439369 -12.699623 -81.756065 -13.333275 -82.050186
-36.149261 -24.765593 -12.713627 -81.795113 -10.992556 -93.698715 -12.663054 -82.60096
-35.776382 -33.719559 -13.351728 -82.064751 -12.670079 -82.527519 -10.209297 -90.387894
330000000 -1.6389579 16.158354 -73.219955 -150.33328 -78.973724 -166.80418 -80.425926 -176.22278
-34.564819 -52.118904 -10.136228 -92.670547 -12.719431 -84.247704 -13.351219 -84.663139
-34.892002 -38.807732 -12.695946 -84.415619 -11.016074 -96.308853 -12.681798 -85.150703
-34.734047 -47.155609 -13.339272 -84.737488 -12.687269 -85.059929 -10.145822 -92.826286
340000000 -1.6452012 9.9709759 -82.922112 152.36067 -74.646103 -170.75125 -77.271751 -61.885796
-33.451229 -65.947578 -10.07712 -94.724174 -12.741316 -86.824493 -13.378682 -87.24778
-34.000759 -54.596764 -12.711114 -87.018517 -10.964054 -98.878967 -12.708158 -87.697723
-33.7094 -62.393368 -13.348725 -87.355118 -12.69676 -87.644104 -10.114405 -95.592285
350000000 -1.6404241 3.8231144 -80.596954 -14.939772 -81.919945 78.078369 -76.204659 88.413063
-32.667599 -76.694695 -10.102354 -97.515007 -12.752377 -89.591927 -13.381765 -89.957565
-32.596771 -67.407928 -12.761213 -89.616959 -10.89371 -101.89485 -12.711296 -90.453484
-32.513538 -74.693161 -13.380611 -89.98851 -12.717458 -90.429817 -10.035975 -98.584167
360000000 -1.6294287 -2.3176105 -88.011421 -40.701202 -80.13726 -95.567871 -78.64666 99.033684
-31.61495 -91.451477 -10.099327 -100.33474 -12.7591 -92.092072 -13.392629 -92.350517
-32.11776 -81.630943 -12.774397 -92.190842 -10.853552 -104.59135 -12.708779 -92.874649
-31.871517 -89.364342 -13.41014 -92.517517 -12.731318 -92.928856 -10.025665 -101.00319
370000000 -1.6667302 -8.612587 -84.995605 38.542713 -90.386192 -153.91737 -80.907494 -122.17274
-30.987606 -101.84642 -10.070709 -102.7717 -12.79194 -94.651962 -13.422407 -94.937531
-31.21158 -92.556335 -12.77941 -94.58847 -10.815878 -107.45942 -12.73893 -95.48967
-31.016903 -99.422653 -13.413322 -95.016357 -12.741961 -95.451988 -10.014771 -103.75928
380000000 -1.6751468 -14.894973 -77.558289 177.61281 -82.210678 90.005531 -79.868935 115.14722
-30.238913 -115.48118 -10.058325 -105.76115 -12.797287 -97.289192 -13.462977 -97.680145
-30.389059 -107.64667 -12.826876 -97.252274 -10.790642 -110.1814 -12.766768 -97.994781
-30.209749 -115.61379 -13.451056 -97.584274 -12.76437 -98.252991 -9.9548168 -106.47158
390000000 -1.7046757 -21.298243 -85.508659 98.060822 -77.349007 -91.601433 -74.620102 127.16546
-29.357658 -130.12189 -10.059575 -108.26829 -12.834163 -99.743538 -13.439379 -100.14239
-29.823755 -117.99603 -12.840566 -99.835144 -10.791553 -112.53041 -12.763491 -100.84366
-29.522463 -124.99455 -13.451872 -100.12285 -12.770391 -100.59225 -9.983119 -109.28243
400000000 -1.7331536 -27.524137 -79.56572 71.983696 -81.68235 109.82931 -82.908096 102.38236
-28.605913 -136.66699 -10.030875 -110.91863 -12.859664 -102.23036 -13.494131 -102.82861
-28.348743 -131.87698 -12.850432 -102.34077 -10.701062 -115.61147 -12.793913 -103.37948
-28.183371 -136.70741 -13.480028 -102.6908 -12.798037 -103.25955 -9.9465303 -111.79704
410000000 -1.7232618 -33.926231 -113.68935 92.783264 -80.577126 152.65991 -80.270676 -56.002392
-27.510897 -151.00578 -9.9825916 -113.87939 -12.88381 -105.02859 -13.530786 -105.48886
-28.370077 -143.0088 -12.867264 -104.87418 -10.682406 -118.30027 -12.825619 -105.92349
-28.176023 -149.18123 -13.48312 -105.28136 -12.822095 -105.869 -9.9397297 -114.57716
420000000 -1.7700748 -39.952446 -73.829117 -31.477299 -80.320694 82.235458 -80.696846 113.97613
-27.297089 -164.32713 -9.9312096 -116.58188 -12.903497 -107.6889 -13.523794 -108.12392
-27.622969 -150.37144 -12.882423 -107.71037 -10.613409 -120.98927 -12.853441 -108.52565
-27.53887 -157.05205 -13.508036 -108.04523 -12.83101 -108.51956 -9.8993168 -117.24802
430000000 -1.7930052 -46.168484 -76.146011 -17.225609 -75.492226 -136.05434 -74.664726 -168.50121
-26.393467 -172.13737 -9.8938847 -119.20896 -12.932052 -110.11029 -13.554662 -110.55231
-26.625282 -163.96918 -12.904555 -110.17477 -10.576383 -123.81236 -12.849927 -111.21713
-26.664492 -170.74052 -13.53574 -110.55019 -12.860793 -111.12434 -9.884429 -120.14292
440000000 -1.8245972 -52.278881 -80.256279 2.1750433 -85.699875 20.810123 -109.33344 -86.363838
-25.944599 175.54877 -9.8686152 -121.84924 -12.939795 -112.62919 -13.566219 -112.90428
-26.269772 -172.40596 -12.927494 -112.71387 -10.537045 -126.49636 -12.875313 -113.86886
-26.088591 -178.04588 -13.565998 -113.07631 -12.871221 -113.67864 -9.7999077 -122.81438
450000000 -1.866549 -58.525482 -84.329254 -74.562325 -83.457657 -35.563034 -77.339615 6.7126145
-24.714186 165.62059 -9.8590546 -124.4186 -12.950096 -115.4386 -13.621422 -115.86295
-25.748631 173.46843 -12.992359 -115.25549 -10.548078 -129.11832 -12.91331 -116.37892
-25.678377 167.17035 -13.626859 -115.63264 -12.917902 -116.34313 -9.8554726 -125.28976
460000000 -1.9407772 -64.884895 -77.270241 -125.69271 -75.19561 109.47542 -79.149307 -37.250648
-24.780624 153.53487 -9.8646803 -127.3547 -13.007978 -117.85164 -13.610721 -118.15167
-24.896767 167.54749 -12.985812 -117.9452 -10.494187 -131.67816 -12.917257 -118.80684
-24.927059 161.66153 -13.604573 -118.34167 -12.939552 -118.92371 -9.7256927 -128.00369
470000000 -1.9833876 -71.225662 -85.282295 88.202972 -73.449516 -24.055452 -81.111404 -80.531929
-24.110146 146.85031 -9.7898035 -129.968 -13.021778 -120.44748 -13.647401 -120.87292
-23.83264 156.04576 -13.045668 -120.42453 -10.42859 -134.35236 -12.969094 -121.75258
-23.790569 149.68716 -13.651297 -120.96069 -12.953506 -121.63305 -9.7403574 -130.81564
480000000 -2.0647919 -77.462181 -76.742455 -44.389702 -89.112633 16.872301 -81.094742 -121.73785
-23.06303 136.73288 -9.8003807 -132.45801 -13.046048 -123.03852 -13.67111 -123.50977
-23.333542 143.64616 -13.049157 -122.90948 -10.415646 -137.0023 -12.952715 -124.14149
-23.256916 137.66432 -13.649158 -123.37323 -12.961349 -124.20843 -9.6914387 -133.07713
490000000 -2.1453922 -84.020355 -76.845146 2.1957757 -82.982353 42.276016 -87.152954 105.07504
-22.925339 125.52818 -9.7405224 -134.97348 -13.059487 -125.46252 -13.702277 -125.88596
-22.650684 134.73685 -13.060143 -125.51616 -10.351958 -139.36815 -12.973816 -126.48962
-22.438986 129.64648 -13.701999 -126.05401 -12.998751 -126.74595 -9.6974182 -135.58582
500000000 -2.2150407 -90.145737 -79.968452 168.18956 -83.696594 27.002687 -77.061958 98.874779
-21.817642 115.05194 -9.7241688 -137.3376 -13.100135 -128.25308 -13.715939 -128.49339
-22.036018 126.03477 -13.103115 -128.12589 -10.357177 -142.3145 -13.028728 -129.31296
-22.056376 120.09445 -13.728681 -128.49454 -13.012919 -129.44273 -9.6176767 -138.42593
510000000 -2.3119042 -96.611176 -80.669136 -140.43225 -85.151993 38.846268 -85.597206 14.114123
-21.233246 106.65253 -9.6688595 -139.93707 -13.1414 -130.72389 -13.753601 -131.30606
-21.656025 114.41241 -13.130362 -130.70627 -10.293479 -145.0603 -13.036963 -131.90622
-21.485355 108.02729 -13.751998 -131.23099 -13.042099 -132.03326 -9.6272612 -141.29753
520000000 -2.3865843 -102.73062 -77.754539 -153.97429 -78.288162 93.115005 -78.897629 -144.73409
-20.674437 96.505165 -9.6665583 -142.30881 -13.166308 -133.4034 -13.772346 -133.77675
-21.032175 107.13901 -13.144763 -133.36168 -10.284298 -147.41321 -13.047984 -134.67017
-20.954145 100.39026 -13.780558 -133.84183 -13.072803 -134.52338 -9.5609579 -143.61479
530000000 -2.4788806 -109.07297 -80.662056 -109.16004 -97.676933 -164.53693 -88.997986 29.938047
-20.072199 85.845505 -9.6586237 -145.00284 -13.190678 -136.20544 -13.829815 -136.69073
-20.395285 94.914879 -13.17287 -136.00069 -10.242831 -150.20303 -13.103504 -137.3997
-20.223015 88.864662 -13.797642 -136.4666 -13.100374 -137.28403 -9.5638237 -146.29668
540000000 -2.5951428 -115.52612 -90.572334 47.695568 -77.230103 -172.76712 -78.745323 179.94119
-19.232868 75.459419 -9.6068468 -147.58145 -13.195472 -138.62933 -13.834712 -139.1828
-19.548876 83.549515 -13.211669 -138.76944 -10.131554 -152.52579 -13.120101 -139.89145
-19.360262 78.211273 -13.835423 -139.25859 -13.105883 -139.88754 -9.5461493 -148.76807
