!Keysight Technologies,P5024B,MY61400385,A.19.30.21
!Date: Tuesday, October 07, 2025 13:39:14
!Correction: S11(C  4-Port  ) 
!S12(C  4-Port  ) 
!S13(C  4-Port  ) 
!S14(C  4-Port  ) 
!S21(C  4-Port  ) 
!S22(C  4-Port  ) 
!S23(C  4-Port  ) 
!S24(C  4-Port  ) 
!S31(C  4-Port  ) 
!S32(C  4-Port  ) 
!S33(C  4-Port  ) 
!S34(C  4-Port  ) 
!S41(C  4-Port  ) 
!S42(C  4-Port  ) 
!S43(C  4-Port  ) 
!S44(C  4-Port  ) 
!S4P File: Measurements: <S11,S12,S13,S14>,
!<S21,S22,S23,S24>,
!<S31,S32,S33,S34>,
!<S41,S42,S43,S44>:
# Hz S  dB   R 50
10000000 -0.12107451 -24.359062 -75.730598 -72.320145 -79.629631 -53.644779 -78.33799 -11.605864
-83.829292 -24.307158 -10.610842 -2.9779327 -12.327186 -2.4433954 -12.963867 -2.4905992
-84.500786 -13.40318 -12.303859 -2.4560375 -11.813053 -3.2928319 -12.306537 -2.4864526
-85.777237 -5.1702404 -12.95726 -2.4523339 -12.316833 -2.4586301 -10.605559 -2.947432
20000000 -0.2588591 -46.899281 -86.055969 47.175255 -92.343216 -107.51102 -79.897118 84.401199
-80.870033 -156.07501 -10.611788 -5.7245665 -12.31607 -4.9061689 -12.954597 -5.0171251
-86.671898 -64.535797 -12.319304 -4.9379077 -11.797477 -5.9571252 -12.291718 -5.0258989
-84.583687 165.51837 -12.961113 -4.9293103 -12.312198 -4.9510217 -10.585707 -5.8186255
30000000 -0.39096472 -68.251564 -79.048599 8.0122805 -93.675354 -102.47334 -75.686661 81.192909
-82.997261 -177.41949 -10.615238 -8.5642195 -12.325342 -7.6133986 -12.993352 -7.7260947
-84.424454 -90.242859 -12.324535 -7.7931638 -11.793877 -9.0257053 -12.328962 -7.8502064
-89.179077 53.397762 -12.973318 -7.7886033 -12.318036 -7.741291 -10.605366 -8.4860983
40000000 -0.54239947 -87.799919 -78.601997 -53.713539 -75.089447 55.714424 -76.76696 90.925636
-66.314728 128.60638 -10.611856 -11.419752 -12.356249 -10.214201 -12.985914 -10.327397
-66.879967 68.518974 -12.319405 -10.321978 -11.765037 -12.096976 -12.3201 -10.393062
-66.939095 99.447838 -12.987711 -10.341614 -12.340053 -10.331395 -10.604346 -11.563333
50000000 -0.72940308 -105.55033 -75.793037 42.382343 -79.494041 -142.74377 -84.328781 78.424667
-77.49202 -85.277275 -10.641809 -14.306428 -12.322684 -12.902248 -12.989771 -12.98021
-95.907494 172.22479 -12.345715 -12.913956 -11.713332 -15.205667 -12.324369 -12.987983
-74.207207 -146.37885 -12.988159 -13.007425 -12.323726 -13.095194 -10.574134 -13.874299
60000000 -0.8757754 -121.56287 -78.38324 154.50529 -75.524643 122.23878 -93.811775 -102.786
-73.7743 -138.45593 -10.581224 -16.880341 -12.342202 -15.430869 -12.992653 -15.526958
-72.353088 -99.638695 -12.327117 -15.444931 -11.681822 -17.576645 -12.321498 -15.561529
-83.024239 -72.740532 -12.985797 -15.552066 -12.323929 -15.657014 -10.542913 -17.113543
70000000 -1.0169715 -136.16791 -77.124817 -175.42935 -73.287979 173.6651 -80.797562 -38.881554
-70.09816 116.07097 -10.617158 -19.71776 -12.365123 -17.99123 -13.007769 -18.026966
-69.574699 86.388863 -12.358468 -18.104975 -11.719042 -21.140043 -12.339074 -18.165926
-67.096008 63.781208 -13.002698 -18.12031 -12.362344 -18.093081 -10.583159 -19.806738
80000000 -1.1620253 -149.35062 -79.441872 -124.30717 -88.755241 -115.98923 -81.959488 -78.99791
-69.93676 -133.40977 -10.593255 -22.767292 -12.379836 -20.423481 -13.02363 -20.551945
-63.180248 -122.87064 -12.36687 -20.572025 -11.715182 -23.98526 -12.366262 -20.694677
-67.915192 -107.93999 -13.025662 -20.608086 -12.355412 -20.634466 -10.614326 -22.837517
90000000 -1.2396792 -161.67326 -87.373512 48.938686 -83.913712 -87.460281 -73.603798 -44.075386
-64.10276 -76.515686 -10.609905 -25.340061 -12.397547 -23.065195 -13.04283 -23.158575
-70.496567 -112.82638 -12.393044 -23.092081 -11.737465 -26.938332 -12.373338 -23.30126
-64.738235 -149.86116 -13.050005 -23.170795 -12.391183 -23.320808 -10.564695 -25.769403
100000000 -1.3123437 -172.74333 -78.354935 -77.338516 -76.256691 -174.91507 -84.186874 164.6281
-60.11227 -179.33711 -10.625077 -28.57604 -12.382852 -25.552553 -13.054109 -25.75963
-58.368984 152.7872 -12.395135 -25.753853 -11.636473 -29.662832 -12.386005 -25.945402
-57.930901 149.67691 -13.047804 -25.85956 -12.375111 -25.880323 -10.524687 -28.471325
110000000 -1.3794537 176.69656 -77.405426 -169.86552 -79.991615 -169.53421 -85.516968 -35.184345
-60.577694 -141.04642 -10.53531 -31.298195 -12.403027 -28.210714 -13.045231 -28.450056
-63.590988 157.99254 -12.388384 -28.25437 -11.663036 -32.695461 -12.390994 -28.60224
-62.416779 179.21361 -13.043641 -28.446583 -12.388613 -28.451073 -10.524924 -31.665785
120000000 -1.4290743 166.92789 -82.9589 91.202011 -75.315353 -34.620022 -79.014229 80.803284
-64.669868 -105.27285 -10.588 -34.077072 -12.39333 -30.778721 -13.054858 -30.995089
-65.131119 -169.74602 -12.397962 -30.816315 -11.600485 -35.544762 -12.381593 -31.134533
-60.045959 -117.25986 -13.03534 -30.931782 -12.381344 -31.071781 -10.507553 -34.418392
130000000 -1.5111781 157.54921 -78.962196 -172.59203 -78.72123 120.94645 -79.967155 162.64056
-65.980209 164.4539 -10.557654 -36.847839 -12.402299 -33.277775 -13.069926 -33.449436
-64.093246 86.390442 -12.412408 -33.319511 -11.574826 -38.978806 -12.412684 -33.628197
-65.362572 67.335686 -13.047905 -33.460354 -12.396861 -33.618515 -10.527841 -37.23156
140000000 -1.5822219 148.45595 -80.997444 31.652552 -83.303566 -125.72456 -79.859238 -7.8590803
-68.247566 -31.788261 -10.505692 -39.615509 -12.424692 -35.884594 -13.077687 -36.106449
-60.925072 -95.285545 -12.416765 -35.858105 -11.602895 -41.711575 -12.408783 -36.311562
-63.3489 -114.95866 -13.087548 -36.049999 -12.414291 -36.232483 -10.494739 -40.081848
150000000 -1.6611822 139.9202 -85.439499 -28.282978 -82.387962 22.996197 -85.763435 125.95815
-63.890995 131.23021 -10.518457 -42.685108 -12.437928 -38.389801 -13.095445 -38.635441
-66.108429 103.22041 -12.433554 -38.536987 -11.563182 -44.628151 -12.411333 -38.848354
-67.695061 -179.72952 -13.091369 -38.637211 -12.429214 -38.854362 -10.459047 -42.890434
160000000 -1.7555158 131.98462 -88.789398 122.78416 -83.675125 -80.870392 -84.81546 166.2784
-59.411747 -175.48433 -10.532561 -45.663864 -12.457755 -41.043961 -13.111747 -41.325325
-59.121117 164.7906 -12.452518 -41.062489 -11.560594 -47.988548 -12.44787 -41.472767
-63.927925 -150.99274 -13.092249 -41.277695 -12.430002 -41.502911 -10.514169 -45.834354
170000000 -1.8197117 124.59633 -77.021896 -162.8094 -76.715111 -87.732727 -90.86042 -131.12495
-60.053955 -141.2222 -10.486073 -48.466389 -12.465437 -43.682384 -13.108866 -43.812431
-56.470688 -151.51442 -12.45761 -43.743973 -11.516485 -50.652939 -12.442344 -44.050945
-62.216347 -144.26991 -13.11399 -43.862576 -12.443569 -44.062714 -10.440372 -48.821548
180000000 -1.8115832 117.69714 -84.254517 -121.22578 -77.203613 -149.72211 -80.478447 92.70755
-63.311787 160.21707 -10.428905 -51.168446 -12.459384 -46.156548 -13.13343 -46.427685
-73.404793 -37.824043 -12.450985 -46.370903 -11.449758 -53.575405 -12.459286 -46.664551
-61.057941 111.9328 -13.093444 -46.467834 -12.436291 -46.62051 -10.458565 -51.58403
190000000 -1.7826024 110.55241 -77.906967 -102.66702 -83.424622 -18.773426 -88.818871 -157.87048
-58.056381 120.95106 -10.462152 -53.913391 -12.487654 -48.702045 -13.139895 -48.916599
-68.671326 129.42253 -12.484376 -48.72942 -11.461246 -56.605602 -12.471731 -49.196335
-68.05072 125.16404 -13.13624 -48.931263 -12.476052 -49.207951 -10.445786 -54.489357
200000000 -1.6898549 103.31962 -79.327087 104.79361 -77.678146 -61.492397 -74.075455 138.89938
-65.739891 133.70757 -10.430813 -56.813766 -12.519236 -51.292751 -13.162588 -51.488258
-61.34227 138.06198 -12.503162 -51.252228 -11.437269 -59.55817 -12.491665 -51.868778
-59.989223 166.72603 -13.159647 -51.419834 -12.491598 -51.671791 -10.392038 -57.185307
210000000 -1.6774796 96.311455 -72.840759 99.71907 -83.74939 1.2776653 -85.137733 -170.4847
-59.093258 103.30787 -10.458591 -59.406895 -12.52343 -53.771423 -13.177729 -53.886402
-57.350906 162.63176 -12.531582 -53.876209 -11.407724 -62.208591 -12.508966 -54.247299
-58.137814 148.28824 -13.174119 -54.138119 -12.489102 -54.252853 -10.388849 -60.104279
220000000 -1.6576215 89.094543 -84.285873 -167.09949 -74.221222 113.49776 -84.293007 -34.127617
-52.904465 127.16531 -10.395952 -62.351936 -12.54903 -56.366745 -13.176136 -56.75153
-52.876637 129.84406 -12.528644 -56.505665 -11.350449 -65.271088 -12.508088 -57.084286
-51.683701 120.20957 -13.17834 -56.715355 -12.525879 -56.888054 -10.336777 -62.987419
230000000 -1.656814 82.285568 -81.810417 -13.11913 -71.405617 -154.18384 -90.694168 -63.741989
-54.219429 60.407196 -10.354324 -65.110832 -12.545492 -59.016525 -13.20384 -59.167725
-58.526352 115.86587 -12.525011 -59.040764 -11.327456 -68.24823 -12.538828 -59.455868
-56.937542 113.93078 -13.173278 -59.3382 -12.535888 -59.621571 -10.33788 -65.399673
240000000 -1.6484131 75.589386 -74.429077 -124.13438 -85.529335 -151.72852 -90.446259 83.763359
-53.34996 91.475327 -10.358679 -67.948547 -12.543091 -61.555351 -13.184173 -61.93108
-51.688717 107.23009 -12.555775 -61.6782 -11.282881 -71.50145 -12.512945 -62.302399
-53.541607 75.625198 -13.201617 -61.975342 -12.520485 -62.210854 -10.296244 -68.515602
250000000 -1.6446844 68.640656 -84.406685 133.2688 -79.600502 -131.02963 -78.615448 -121.26436
-48.271748 76.600075 -10.357828 -70.588547 -12.601023 -64.17865 -13.203716 -64.413223
-48.931217 82.472565 -12.570772 -64.13559 -11.289684 -74.198792 -12.540738 -64.78183
-49.922123 68.140694 -13.223329 -64.384895 -12.573374 -64.797928 -10.247211 -71.132004
260000000 -1.6315999 61.923492 -79.522758 108.15343 -79.41291 115.09855 -81.947235 65.482506
-45.584438 53.642334 -10.324665 -73.575729 -12.598603 -66.740875 -13.264264 -66.91227
-48.185242 64.532349 -12.599381 -66.772652 -11.272573 -76.852432 -12.572779 -67.267746
-48.222492 52.498516 -13.244686 -67.059166 -12.570048 -67.437836 -10.257483 -73.816002
270000000 -1.6426337 55.318001 -76.968994 -113.40258 -81.643738 86.668449 -78.927467 -159.25334
-44.297718 53.920521 -10.282421 -76.652199 -12.627089 -69.133293 -13.25528 -69.527512
-44.660316 60.132671 -12.608521 -69.162674 -11.202569 -79.583923 -12.565226 -69.786758
-44.439003 52.80051 -13.258266 -69.480438 -12.590291 -69.777565 -10.201951 -76.785927
280000000 -1.6151651 48.852425 -71.313263 -27.143332 -94.487488 -76.961014 -75.75425 -26.836254
-44.586678 32.410065 -10.254211 -79.063583 -12.615107 -71.821236 -13.286589 -72.125542
-43.405136 57.838768 -12.643138 -71.77227 -11.123604 -82.848717 -12.596121 -72.500999
-43.298393 41.924465 -13.287111 -72.024101 -12.581604 -72.518951 -10.141302 -79.391319
290000000 -1.6073158 42.43676 -83.19239 86.24456 -75.005211 98.647743 -75.97113 -170.26768
-41.194477 10.593093 -10.265034 -81.726959 -12.635432 -74.502815 -13.297637 -74.687431
-43.355488 35.683468 -12.656475 -74.433632 -11.139707 -85.468727 -12.609951 -75.067001
-42.98177 22.655899 -13.305098 -74.678185 -12.607424 -75.155144 -10.118255 -82.015213
300000000 -1.5951542 36.004089 -105.43241 -175.03587 -77.340736 172.73756 -89.285034 39.570232
-40.094242 2.8316367 -10.204433 -84.276474 -12.669 -77.001915 -13.310727 -77.252968
-40.15097 9.9825659 -12.668955 -76.998543 -11.082321 -88.663414 -12.629025 -77.693298
-40.244114 0.22013013 -13.300691 -77.36293 -12.609797 -77.680779 -10.09392 -84.769585
310000000 -1.6112837 29.727831 -79.629265 -74.885147 -80.576981 -57.953438 -79.633812 -153.45038
-38.355671 -9.1016979 -10.189013 -87.449852 -12.682419 -79.428726 -13.325599 -79.766144
-38.386757 -0.5649063 -12.681733 -79.483231 -11.055959 -91.203941 -12.641542 -80.178833
-37.935917 -10.655815 -13.321254 -79.802681 -12.643098 -80.196732 -10.110641 -87.685875
320000000 -1.6008654 23.340912 -77.170189 107.14875 -83.101662 116.12463 -78.124077 52.087326
-36.898941 -25.385712 -10.177433 -89.779938 -12.69791 -81.985573 -13.346346 -82.392014
-37.465267 -10.566154 -12.71397 -81.963097 -10.973755 -93.815392 -12.659528 -82.837196
-37.431511 -19.58918 -13.359325 -82.328659 -12.66896 -82.779495 -10.082843 -90.141235
330000000 -1.6031017 17.018398 -74.620094 37.36488 -81.712219 -158.97723 -88.272804 69.651253
-35.943485 -37.933819 -10.142624 -92.728134 -12.729855 -84.429291 -13.351709 -84.81842
-36.490429 -27.621927 -12.723937 -84.650352 -10.958076 -96.758186 -12.666705 -85.316887
-36.176113 -38.499943 -13.368486 -84.866951 -12.693889 -85.276993 -10.067695 -92.589775
340000000 -1.6007857 11.004569 -77.177994 -41.570316 -78.498886 76.328209 -82.59436 -34.774788
-35.141705 -54.066833 -10.090995 -95.473984 -12.760394 -87.188759 -13.385928 -87.486465
-35.31955 -43.528378 -12.748028 -87.101784 -10.900601 -99.594765 -12.700755 -87.911629
-34.92889 -52.144543 -13.394517 -87.47374 -12.709825 -88.00708 -10.046291 -95.533791
350000000 -1.603001 4.6752687 -86.5065 69.362564 -86.615273 166.13681 -79.957359 128.94357
-33.904949 -69.336678 -10.037466 -97.861534 -12.769466 -89.832726 -13.407259 -90.022926
-34.132225 -56.625782 -12.757848 -89.766205 -10.863554 -102.61537 -12.726506 -90.494034
-33.938786 -66.549927 -13.400756 -90.176781 -12.718847 -90.665627 -10.042988 -98.190605
360000000 -1.5988678 -1.536976 -96.773354 -156.25362 -76.0886 9.1839447 -79.351509 65.187469
-32.590958 -82.099335 -10.039207 -100.61385 -12.791532 -92.227615 -13.415707 -92.538704
-33.562706 -70.11937 -12.775869 -92.227859 -10.824667 -104.75096 -12.728905 -93.107018
-33.154701 -79.578606 -13.436448 -92.632133 -12.734591 -93.108734 -9.9820595 -100.9653
370000000 -1.5944811 -7.8570085 -75.901352 67.729256 -76.631058 121.35051 -85.348755 -55.766762
-32.033863 -93.632813 -9.977376 -103.18497 -12.816643 -94.761475 -13.438649 -95.159035
-32.325768 -82.111656 -12.786989 -94.760307 -10.723677 -107.27465 -12.757635 -95.734787
-32.13628 -90.071259 -13.432557 -95.126068 -12.774858 -95.606781 -9.9841805 -103.66418
380000000 -1.6179363 -14.000635 -94.520432 -103.90305 -77.391846 -81.269524 -75.403305 -160.7045
-31.206104 -101.44331 -9.9642963 -105.69564 -12.833304 -97.324509 -13.474253 -97.780083
-31.166761 -97.459274 -12.825929 -97.363884 -10.702706 -110.09698 -12.790231 -98.181488
-30.835213 -105.67152 -13.46306 -97.766014 -12.797806 -98.266785 -9.9520731 -105.93315
390000000 -1.6239514 -20.248018 -73.695068 -88.957779 -72.871971 101.14105 -79.606316 -133.4465
-30.517591 -116.52128 -9.932972 -108.37819 -12.870057 -99.810532 -13.486948 -100.09798
-30.770443 -108.83116 -12.818869 -99.855324 -10.673473 -113.15044 -12.784485 -100.74976
-30.576136 -117.26062 -13.458038 -100.17196 -12.799536 -100.77335 -9.9412594 -108.62321
400000000 -1.6390969 -26.360548 -83.1707 136.69415 -84.252388 -126.72837 -84.143295 -9.2239475
-29.775379 -131.80655 -9.92272 -110.96449 -12.867259 -102.44003 -13.525802 -102.9373
-30.145742 -119.04279 -12.857718 -102.49566 -10.617573 -115.5341 -12.812731 -103.41777
-29.98913 -127.04682 -13.492623 -102.88683 -12.808619 -103.40127 -9.913887 -111.50809
410000000 -1.6498121 -32.50457 -85.339882 -39.92104 -85.215012 137.3876 -71.403633 153.62788
-28.157393 -139.13425 -9.9576893 -113.73462 -12.893575 -105.25043 -13.527728 -105.6655
-29.596909 -134.59688 -12.897135 -105.10083 -10.583743 -118.51939 -12.827162 -105.99297
-29.207838 -140.8425 -13.542216 -105.57072 -12.828723 -106.04942 -9.8767262 -114.32645
420000000 -1.6775242 -38.555927 -82.555305 -71.937088 -80.932571 157.99652 -81.103088 55.010635
-28.338581 -150.84077 -9.8687601 -116.44042 -12.912079 -107.53152 -13.573445 -107.99595
-28.366669 -140.2318 -12.900245 -107.72044 -10.535296 -120.95984 -12.830808 -108.56969
-28.020538 -146.95021 -13.535253 -108.02567 -12.834866 -108.62565 -9.8207874 -116.56525
430000000 -1.7110038 -44.93774 -76.899437 114.07699 -79.478745 -175.52109 -77.225052 -108.97237
-27.678391 -160.29257 -9.8852978 -118.73139 -12.923695 -110.15281 -13.544642 -110.56622
-27.323856 -152.76109 -12.926715 -110.17814 -10.479931 -123.5722 -12.866693 -111.36439
-27.640659 -158.85326 -13.565352 -110.49628 -12.837923 -111.32589 -9.8516798 -119.44366
440000000 -1.7607443 -50.929932 -73.51712 -32.169651 -78.352989 -17.895407 -72.902191 150.77455
-26.749594 -171.31796 -9.8644094 -121.49543 -12.946648 -112.56038 -13.591172 -113.24706
-26.926859 -162.3183 -12.935121 -112.83379 -10.435468 -126.11701 -12.887314 -113.7997
-27.099417 -168.51064 -13.565486 -113.13406 -12.86208 -113.81528 -9.8148708 -122.17374
450000000 -1.7943268 -57.353531 -78.913208 2.5107672 -83.98333 137.8266 -81.458336 -166.97935
-25.802576 -179.25026 -9.7908993 -123.97858 -13.00216 -115.37867 -13.609128 -115.78271
-26.318874 -176.35596 -12.986822 -115.43248 -10.409139 -128.64777 -12.913013 -116.38849
-25.875044 176.82666 -13.618539 -115.80618 -12.924573 -116.27895 -9.8129702 -124.78194
460000000 -1.8553897 -63.427528 -78.585159 -38.042381 -73.582771 -55.268856 -79.59211 85.039124
-25.905931 164.448 -9.8251085 -126.70876 -13.027008 -117.76515 -13.622078 -118.34724
-25.992603 179.69795 -13.003312 -117.85335 -10.373701 -131.48795 -12.942336 -119.05086
-25.88225 172.18166 -13.630532 -118.24483 -12.927054 -118.92944 -9.7321148 -127.46734
470000000 -1.8838416 -69.654724 -74.860916 -159.5565 -78.528122 56.097061 -77.222755 -84.305695
-25.046965 155.44498 -9.7947006 -129.50691 -13.017097 -120.45882 -13.668558 -120.78844
-24.862711 169.60883 -13.033748 -120.68039 -10.350064 -134.03966 -12.939777 -121.71931
-24.787838 161.83655 -13.6734 -121.18876 -12.963621 -121.71992 -9.7288704 -130.03087
480000000 -1.9288114 -75.887894 -86.636635 138.67485 -86.549004 -9.5660009 -79.022614 58.486904
-23.973846 148.13817 -9.7896566 -132.17622 -13.044295 -123.21385 -13.677178 -123.58677
-24.079565 155.96831 -13.072719 -122.92673 -10.331699 -136.51488 -12.982439 -124.36992
-24.082886 148.3147 -13.697843 -123.45671 -12.954295 -124.40813 -9.7518902 -132.77237
490000000 -2.0316405 -82.282639 -84.908379 65.460648 -72.772255 -140.86578 -72.286789 -89.818832
-23.494087 138.00391 -9.7838383 -134.64915 -13.079581 -125.74947 -13.708025 -126.33349
-23.235563 146.10849 -13.074098 -125.83314 -10.278697 -138.96758 -12.999038 -126.95071
-23.076393 139.29576 -13.682646 -126.43035 -12.990818 -126.88977 -9.7357378 -135.26521
500000000 -2.0788457 -88.366051 -77.342491 174.30849 -82.016914 129.07278 -80.01384 175.17773
-22.646254 128.04398 -9.7442856 -137.27371 -13.10743 -128.38127 -13.698462 -128.80501
-22.633493 134.41423 -13.10407 -128.31148 -10.21589 -141.58318 -13.042981 -129.43912
-22.473898 127.57143 -13.725523 -128.81076 -13.012385 -129.48862 -9.6792946 -138.15707
510000000 -2.1772366 -94.636154 -77.593643 -171.11166 -83.836761 -119.4013 -80.094719 -66.765045
-22.022482 117.58192 -9.6848431 -140.06313 -13.122962 -130.95003 -13.758345 -131.45895
-22.207685 126.29531 -13.13589 -130.94061 -10.245099 -144.15836 -13.036209 -132.09032
-22.081345 118.58856 -13.768748 -131.43777 -13.049702 -132.1149 -9.6160727 -140.72049
520000000 -2.2687237 -101.11668 -83.740494 25.899313 -68.674065 82.977249 -80.36425 10.149984
-21.458725 107.25924 -9.6533957 -142.55664 -13.167656 -133.66762 -13.785141 -134.12924
-21.428375 115.97485 -13.149268 -133.40767 -10.159245 -146.68159 -13.060648 -134.65559
-21.345842 109.80396 -13.786001 -133.99623 -13.072672 -134.83043 -9.622057 -143.28616
530000000 -2.3374286 -107.22601 -82.91835 122.97987 -83.109818 52.68404 -76.210274 -82.077286
-20.471649 97.728043 -9.6086016 -145.18811 -13.195359 -136.17621 -13.817469 -136.8175
-20.800262 105.38737 -13.200089 -136.20018 -10.135988 -149.41115 -13.096513 -137.4427
-20.653105 98.671883 -13.843726 -136.80984 -13.09294 -137.39328 -9.5723515 -145.92706
540000000 -2.4518723 -113.77393 -76.202988 69.351974 -72.700981 -139.6918 -78.496239 -30.243036
-19.943567 86.340378 -9.6297817 -147.61435 -13.256955 -138.76793 -13.863796 -139.3656
-20.028969 93.922043 -13.212728 -138.81853 -10.162586 -151.93253 -13.116789 -140.04126
-19.831448 87.988823 -13.841274 -139.34891 -13.135221 -139.99777 -9.579114 -148.78925
