!Keysight Technologies,P5024B,MY61400385,A.19.30.21
!Date: Tuesday, October 07, 2025 13:26:16
!Correction: S11(C  4-Port  ) 
!S12(C  4-Port  ) 
!S13(C  4-Port  ) 
!S14(C  4-Port  ) 
!S21(C  4-Port  ) 
!S22(C  4-Port  ) 
!S23(C  4-Port  ) 
!S24(C  4-Port  ) 
!S31(C  4-Port  ) 
!S32(C  4-Port  ) 
!S33(C  4-Port  ) 
!S34(C  4-Port  ) 
!S41(C  4-Port  ) 
!S42(C  4-Port  ) 
!S43(C  4-Port  ) 
!S44(C  4-Port  ) 
!S4P File: Measurements: <S11,S12,S13,S14>,
!<S21,S22,S23,S24>,
!<S31,S32,S33,S34>,
!<S41,S42,S43,S44>:
# Hz S  dB   R 50
10000000 -0.11039449 -24.510094 -78.295586 123.34074 -83.368721 105.46215 -78.79998 -135.0524
-85.830948 -98.857552 -10.638088 -3.0714147 -12.324731 -2.3909371 -12.961843 -2.4467998
-90.772148 -117.72865 -12.315836 -2.3666673 -11.760636 -3.0157635 -12.296775 -2.4480832
-80.278282 -72.801666 -12.968443 -2.3787138 -12.311581 -2.420912 -10.604989 -3.1655953
20000000 -0.2587308 -47.404362 -87.686272 13.049191 -82.347198 173.81085 -80.639366 3.671432
-80.096901 65.342117 -10.585827 -5.6366434 -12.319695 -4.9793277 -12.964489 -5.0000949
-87.657684 41.480278 -12.293734 -5.0015178 -11.763791 -6.1762404 -12.304851 -4.9744434
-72.455421 125.09171 -12.94782 -4.9950676 -12.306697 -5.0347557 -10.605984 -5.6233182
30000000 -0.41266575 -68.740036 -78.588509 101.66649 -80.776443 -133.13297 -81.017273 126.10431
-90.219154 -171.37886 -10.614434 -8.3669586 -12.32522 -7.6622396 -12.989466 -7.7491698
-86.073982 -140.21953 -12.321687 -7.7334452 -11.768012 -8.838069 -12.32688 -7.8379812
-83.592957 15.561048 -12.974659 -7.7334809 -12.308727 -7.8013501 -10.600928 -8.684865
40000000 -0.586402 -88.368629 -75.697243 -78.30854 -77.595245 -179.3101 -82.205925 -79.586044
-62.216808 96.649673 -10.615485 -11.146059 -12.347971 -10.312493 -12.982666 -10.282488
-63.649704 79.521347 -12.305673 -10.259214 -11.764271 -11.916492 -12.315152 -10.325853
-61.357571 86.19973 -12.963999 -10.29382 -12.331444 -10.378351 -10.540905 -11.141826
50000000 -0.73880899 -106.30346 -81.774605 2.2471185 -75.126259 -33.741051 -83.910904 -122.98896
-64.500816 -11.008458 -10.570469 -14.311158 -12.357149 -12.923077 -13.006127 -13.0384
-66.273209 -3.9146473 -12.334896 -12.998182 -11.710825 -15.031485 -12.336993 -13.087238
-65.618187 -13.479449 -12.987453 -13.08195 -12.346906 -13.120856 -10.637539 -14.42383
60000000 -0.90031439 -122.37594 -77.648468 -14.661264 -76.018997 13.287813 -84.002472 111.437
-64.829948 22.707342 -10.587882 -16.681293 -12.346563 -15.458595 -12.997483 -15.504319
-63.934994 14.909385 -12.337356 -15.316197 -11.692286 -17.93894 -12.329093 -15.544737
-65.788826 21.070629 -12.990882 -15.433593 -12.32356 -15.605621 -10.614734 -16.866697
70000000 -1.0302863 -137.04979 -78.092361 -52.810993 -87.161079 66.191551 -86.490211 81.452477
-67.637787 -133.64536 -10.557204 -19.665232 -12.383617 -17.905043 -13.025042 -18.059114
-68.689018 -141.57719 -12.357281 -17.94066 -11.687275 -20.926188 -12.361891 -18.100407
-67.553772 -139.81415 -13.014815 -18.001791 -12.369264 -18.022381 -10.58732 -19.825735
80000000 -1.1420718 -150.10678 -82.011009 103.15627 -88.818375 63.554161 -80.19931 137.09193
-80.067131 -33.24601 -10.568309 -22.514772 -12.383416 -20.570288 -13.034082 -20.615278
-71.820419 93.828514 -12.368859 -20.546864 -11.695134 -24.049082 -12.359996 -20.778749
-77.362793 36.450706 -13.017801 -20.652737 -12.360683 -20.754585 -10.575411 -22.952049
90000000 -1.2586935 -162.33208 -89.89106 82.25753 -77.397255 171.34935 -82.080788 118.3437
-63.727047 -89.867859 -10.606348 -25.457767 -12.392421 -23.112694 -13.044094 -23.124611
-63.63588 -130.72688 -12.382915 -23.135277 -11.70776 -26.834398 -12.371027 -23.245409
-62.593216 -130.67557 -13.033075 -23.187872 -12.378598 -23.325016 -10.603333 -25.619753
100000000 -1.3152357 -173.41307 -76.559219 124.80234 -78.88221 53.912861 -79.569229 14.337204
-67.182732 -160.24304 -10.576699 -28.569521 -12.417829 -25.621548 -13.055376 -25.824799
-68.208786 125.24523 -12.41082 -25.839294 -11.637076 -29.735847 -12.374419 -26.036644
-67.467285 130.06667 -13.063244 -25.953585 -12.402304 -25.863192 -10.572889 -28.651394
110000000 -1.387867 176.10001 -86.06385 -15.667066 -83.201965 -98.382942 -77.129211 139.89932
-71.388809 -12.758987 -10.555387 -31.339746 -12.385023 -28.320314 -13.048042 -28.375025
-63.77589 -97.054909 -12.395844 -28.276299 -11.616873 -33.028034 -12.382246 -28.480642
-66.353485 -56.080784 -13.052102 -28.371428 -12.374018 -28.539112 -10.550503 -31.545769
120000000 -1.4358374 166.28577 -74.014854 -70.748825 -79.492722 -97.721939 -83.134506 -98.484329
-61.290722 178.08748 -10.561051 -34.177628 -12.398118 -30.857771 -13.026842 -31.001242
-61.141205 -179.09048 -12.386308 -30.856804 -11.589611 -35.707722 -12.362103 -31.147142
-57.830643 -178.15137 -13.033197 -30.998285 -12.381016 -31.097916 -10.516821 -34.229088
130000000 -1.4741513 156.95442 -86.234886 -108.80219 -74.484161 7.4651895 -73.091003 -61.599346
-68.186203 154.41277 -10.552665 -36.934368 -12.420912 -33.362427 -13.058064 -33.477131
-69.678284 140.18483 -12.412191 -33.259441 -11.614776 -38.712681 -12.39159 -33.715588
-67.096863 115.70451 -13.054316 -33.430008 -12.404195 -33.684658 -10.479936 -37.234055
140000000 -1.5475866 147.94214 -78.719437 -6.0026889 -74.440048 90.450478 -73.716026 -122.51548
-65.400124 -32.817982 -10.539977 -39.753468 -12.420557 -35.987839 -13.075134 -36.003166
-78.703339 -8.4692106 -12.423163 -35.940102 -11.588344 -41.719746 -12.407007 -36.173923
-69.217751 100.34885 -13.085029 -36.101883 -12.406369 -36.32864 -10.46911 -39.979866
150000000 -1.5733477 139.59055 -76.793129 -76.128143 -82.200325 -175.33176 -82.824265 87.829361
-67.628876 55.610115 -10.510432 -42.674099 -12.435334 -38.466381 -13.097644 -38.631557
-60.94611 -32.002132 -12.44519 -38.493797 -11.568337 -45.127476 -12.426506 -38.928215
-62.739853 4.4916577 -13.097081 -38.668232 -12.414602 -38.84441 -10.49701 -42.647614
160000000 -1.639468 131.11604 -79.628357 -19.120909 -79.758575 20.017838 -80.331856 -104.92628
-65.677322 176.79346 -10.510798 -45.616913 -12.466507 -41.162464 -13.109946 -41.287895
-57.9795 146.94893 -12.450821 -41.073116 -11.507826 -47.675159 -12.442718 -41.445129
-57.144352 146.88309 -13.096987 -41.232197 -12.455481 -41.460896 -10.515676 -45.70351
170000000 -1.6946316 123.26141 -79.652657 -27.018398 -80.11602 69.74099 -81.737175 -32.786106
-88.802284 -163.35004 -10.466188 -48.461052 -12.467233 -43.629955 -13.112254 -43.86515
-66.61908 -144.45523 -12.43254 -43.716187 -11.507672 -50.872009 -12.437156 -44.133617
-70.153244 -75.897087 -13.090772 -43.903458 -12.43678 -44.021847 -10.468269 -48.374355
180000000 -1.7608806 115.45905 -72.978592 -94.552872 -79.244614 -125.66438 -78.591995 56.432465
-67.166313 -172.72325 -10.416817 -51.358719 -12.477008 -46.153557 -13.128517 -46.441578
-63.884052 -168.80984 -12.4614 -46.308105 -11.505157 -53.712898 -12.453944 -46.753139
-62.261002 167.07841 -13.114057 -46.501381 -12.442548 -46.577702 -10.469273 -51.457958
190000000 -1.8028452 108.72387 -94.745529 -1.2627223 -77.432686 163.14375 -86.689438 117.08772
-58.924206 138.67924 -10.42443 -54.028099 -12.488971 -48.657928 -13.1415 -48.799904
-58.933533 142.76448 -12.471958 -48.847729 -11.474338 -56.457451 -12.46503 -49.084808
-57.463924 131.1778 -13.125431 -49.029274 -12.472317 -49.10088 -10.420407 -54.455925
200000000 -1.8135377 101.86523 -84.34446 -115.82877 -77.900902 -29.624594 -81.216713 2.2117968
-56.767471 156.38016 -10.452901 -56.890137 -12.49561 -51.14286 -13.150938 -51.505676
-57.595863 157.28951 -12.503632 -51.283859 -11.421656 -59.278858 -12.475348 -51.878586
-56.610844 147.08284 -13.145055 -51.458294 -12.457921 -51.7127 -10.409529 -57.216805
210000000 -1.7707485 95.092178 -85.265587 109.23568 -78.776695 -139.25487 -90.56723 -152.89723
-62.101871 136.2688 -10.430188 -59.565426 -12.531859 -53.858711 -13.183919 -54.021526
-56.464977 177.24637 -12.521048 -53.835377 -11.432902 -62.445423 -12.496036 -54.429379
-55.898781 177.99847 -13.177761 -54.021069 -12.51681 -54.301102 -10.353447 -60.102318
220000000 -1.7236575 88.200157 -75.11322 112.77184 -85.622856 -108.33038 -80.760872 56.477776
-60.983391 96.727242 -10.429163 -62.100163 -12.532413 -56.314335 -13.177196 -56.608757
-52.722775 158.54181 -12.528509 -56.368111 -11.354473 -65.236343 -12.50688 -56.891087
-56.419243 134.47221 -13.175785 -56.594608 -12.514895 -56.876709 -10.298135 -62.752071
230000000 -1.7018478 81.270638 -84.493477 84.89122 -78.731339 94.218254 -85.673141 140.32153
-56.795124 77.241653 -10.364734 -65.105003 -12.543405 -58.967571 -13.194078 -59.282799
-57.849472 127.07981 -12.531422 -59.032696 -11.360527 -68.196449 -12.520238 -59.600826
-53.499306 114.47727 -13.180662 -59.289696 -12.532546 -59.545616 -10.312873 -65.624748
240000000 -1.6915745 74.670303 -102.10329 -164.37151 -76.460564 -136.81415 -80.476761 37.454029
-55.048218 59.843967 -10.348991 -68.005554 -12.544423 -61.583431 -13.198503 -61.879963
-53.176041 127.50044 -12.547064 -61.586491 -11.320738 -71.160057 -12.524546 -62.255112
-52.459358 109.53429 -13.193192 -61.808781 -12.528748 -62.104809 -10.295921 -68.478371
250000000 -1.6504393 67.850746 -78.769119 -92.296585 -87.227753 -51.362473 -78.082893 109.39227
-52.550739 102.77145 -10.330956 -70.737373 -12.574235 -64.155823 -13.217882 -64.269455
-46.797997 103.22099 -12.593781 -64.171257 -11.22819 -73.687241 -12.544876 -64.722191
-48.254459 96.299812 -13.240104 -64.502403 -12.551229 -64.814621 -10.327666 -70.907677
260000000 -1.6777017 61.235336 -74.749268 113.63224 -79.655663 -99.667297 -74.747581 -27.657391
-46.950428 68.062126 -10.276481 -73.706436 -12.595901 -66.649117 -13.238149 -66.922211
-46.832726 79.245331 -12.591427 -66.658081 -11.247207 -76.997612 -12.539609 -67.347794
-47.5285 64.640068 -13.230669 -67.005646 -12.570842 -67.365067 -10.252224 -74.096611
270000000 -1.6517004 54.563614 -83.111198 173.79298 -105.9656 43.228031 -82.335152 -162.00002
-43.497776 50.900578 -10.283296 -76.165176 -12.616578 -69.138969 -13.262703 -69.390556
-45.75396 54.564926 -12.614942 -69.281166 -11.181503 -79.706467 -12.573236 -69.808632
-44.293659 46.901085 -13.267074 -69.576057 -12.583151 -69.718437 -10.203025 -76.485596
280000000 -1.6455395 47.904728 -79.067589 -153.01997 -76.215569 48.825676 -78.590431 145.91435
-42.336048 32.99522 -10.258472 -79.286926 -12.634607 -71.746056 -13.301701 -72.168045
-44.16481 43.165211 -12.635703 -71.727333 -11.191308 -82.803665 -12.602875 -72.501884
-43.316895 29.540083 -13.279521 -71.996864 -12.61586 -72.388023 -10.185126 -79.633003
290000000 -1.6441718 41.550747 -74.781746 -82.592636 -84.578262 -67.189484 -76.073029 139.82384
-41.451096 21.60014 -10.239294 -81.929596 -12.645381 -74.35424 -13.301004 -74.678787
-41.256004 32.303253 -12.64601 -74.444626 -11.120117 -85.504089 -12.619383 -74.997406
-40.656811 23.785307 -13.284975 -74.735764 -12.610085 -75.039734 -10.150352 -82.036079
300000000 -1.6169921 34.995975 -78.264893 -154.45488 -80.622467 104.89986 -81.367256 55.579567
-39.789955 1.1399201 -10.225999 -84.78437 -12.656866 -76.953484 -13.296235 -77.25058
-40.370621 22.208887 -12.665958 -77.058342 -11.030156 -88.439728 -12.626494 -77.725761
-39.951077 11.549385 -13.296639 -77.369576 -12.609866 -77.791756 -10.101469 -84.991295
310000000 -1.631898 28.699827 -84.793602 -101.16496 -81.770195 130.71751 -86.351234 -117.95495
-37.8349 -9.3485889 -10.214332 -87.339462 -12.697458 -79.405457 -13.333944 -79.726776
-38.438793 3.9603252 -12.67148 -79.467926 -11.048697 -91.044937 -12.642468 -80.15136
-37.774906 -5.4738789 -13.327385 -79.781837 -12.648054 -80.188293 -10.095193 -87.208191
320000000 -1.6319971 22.191696 -84.324692 151.6181 -74.746239 80.249016 -94.157173 -145.77417
-36.827518 -24.087088 -10.181038 -89.869644 -12.698773 -81.987175 -13.355265 -82.195847
-36.717915 -9.372138 -12.710137 -81.914665 -10.970112 -94.094849 -12.668187 -82.638039
-36.444702 -17.782837 -13.360543 -82.293411 -12.660822 -82.707268 -10.080373 -89.933754
330000000 -1.6158835 16.042231 -73.351433 146.8412 -79.165451 -62.099686 -87.692757 -102.39327
-35.679073 -38.776295 -10.14154 -92.527428 -12.701609 -84.396935 -13.355622 -84.828636
-35.906349 -25.114309 -12.730333 -84.476433 -10.94785 -96.676025 -12.675047 -85.305618
-35.661137 -32.496243 -13.368855 -84.844986 -12.675447 -85.228394 -10.082269 -92.753067
340000000 -1.6053762 9.763792 -84.002853 -141.61913 -81.232132 3.7524109 -76.63649 -75.094467
-34.469635 -53.425858 -10.104076 -95.108788 -12.745522 -87.13887 -13.387018 -87.375755
-34.803974 -42.74881 -12.755031 -87.132133 -10.925574 -99.472878 -12.696055 -87.87394
-34.513805 -49.448082 -13.393151 -87.450157 -12.698731 -87.917656 -10.043866 -95.579056
350000000 -1.6223899 3.5459433 -77.898659 -115.29807 -87.510757 -174.36765 -80.117332 38.23019
-33.644737 -67.486366 -10.095439 -97.932854 -12.767601 -89.740402 -13.421176 -90.150818
-33.681255 -54.320538 -12.750617 -89.682304 -10.825809 -102.32394 -12.722127 -90.627663
-33.469826 -63.30545 -13.393141 -90.095657 -12.711029 -90.659431 -10.052669 -98.339081
360000000 -1.6316545 -2.7116876 -83.377968 -45.379696 -76.438965 117.71752 -76.895386 -9.6214972
-32.562393 -78.897606 -10.044217 -100.58117 -12.780189 -92.265717 -13.405187 -92.56311
-32.217342 -70.220261 -12.77222 -92.169075 -10.804392 -104.99792 -12.716884 -93.174599
-32.146606 -76.132683 -13.425891 -92.586128 -12.733359 -93.209557 -9.9790764 -101.01852
370000000 -1.6458292 -9.0164528 -77.929138 -10.439126 -80.204613 -126.92505 -82.058846 96.49601
-32.096035 -92.221123 -10.013671 -103.03501 -12.819641 -94.805054 -13.421885 -95.134071
-31.852217 -77.834305 -12.794683 -94.77565 -10.758001 -107.73518 -12.741662 -95.829842
-31.886576 -84.460861 -13.433309 -95.137184 -12.757823 -95.630104 -9.9179173 -103.6861
380000000 -1.6419048 -15.242025 -76.167587 89.668869 -75.092331 118.67283 -78.218002 -13.34209
-30.777727 -103.26691 -9.9716473 -105.71024 -12.840826 -97.196404 -13.455541 -97.629135
-30.986834 -96.402092 -12.821021 -97.442833 -10.710486 -110.14204 -12.763398 -98.067703
-30.914488 -102.44234 -13.454568 -97.737061 -12.783095 -98.161385 -9.926425 -106.03887
390000000 -1.6733842 -21.477884 -76.926514 175.05702 -76.751457 -121.46114 -81.045578 -87.484383
-30.370367 -115.85628 -9.9555788 -108.65182 -12.853011 -99.901154 -13.517603 -100.07909
-29.913015 -106.54971 -12.810892 -100.05593 -10.660608 -112.80959 -12.770567 -100.79501
-29.829596 -114.68875 -13.453506 -100.23266 -12.792521 -100.81959 -9.9102011 -108.459
400000000 -1.6834421 -27.575237 -84.295715 -63.460545 -80.356583 -124.62431 -83.190826 -5.9039564
-29.325342 -122.23772 -9.9255066 -110.90661 -12.883344 -102.62529 -13.512667 -102.93638
-28.574013 -123.18797 -12.872502 -102.49725 -10.64533 -115.56696 -12.797113 -103.34177
-28.541767 -127.71641 -13.497383 -102.97145 -12.821675 -103.43285 -9.859684 -111.49982
410000000 -1.6913567 -33.794346 -80.692383 59.313328 -81.852951 66.26947 -82.994133 5.9809365
-28.327168 -140.17299 -9.8923216 -113.7087 -12.880212 -104.98146 -13.525746 -105.4753
-28.637613 -131.08464 -12.876858 -105.35852 -10.575574 -118.39495 -12.813853 -105.98488
-28.454273 -137.32927 -13.513386 -105.7427 -12.815945 -106.16349 -9.873951 -114.16711
420000000 -1.7270582 -39.814365 -79.087563 -47.188576 -84.102104 -148.57076 -81.941376 -7.4170322
-27.637094 -149.91397 -9.9106112 -116.15923 -12.917943 -107.69392 -13.533888 -108.20054
-27.795336 -142.28378 -12.891175 -107.62278 -10.529444 -120.83203 -12.836268 -108.65459
-27.929943 -149.19298 -13.511338 -108.03571 -12.840026 -108.66468 -9.8462076 -116.66284
430000000 -1.7447667 -46.203457 -88.302078 -49.181808 -76.798882 161.88699 -83.385231 -10.20104
-26.990046 -166.28535 -9.8809357 -118.99244 -12.943438 -110.17214 -13.547494 -110.73878
-27.6406 -149.68341 -12.915665 -110.26907 -10.502282 -123.49207 -12.891212 -111.31369
-27.582462 -156.58984 -13.532981 -110.51934 -12.868337 -111.17041 -9.8653278 -119.57549
440000000 -1.8031821 -52.385727 -81.183525 36.565845 -75.237312 -87.166016 -85.868225 -54.654213
-26.634172 -172.04765 -9.8733816 -121.77233 -12.954893 -112.8731 -13.594986 -113.21967
-26.187449 -161.31731 -12.960638 -112.80066 -10.466063 -125.98979 -12.8982 -113.79704
-25.856117 -167.43126 -13.581783 -113.3627 -12.891579 -113.56498 -9.8224287 -122.09837
450000000 -1.8787431 -58.599834 -82.612602 168.83211 -90.137398 -140.63321 -83.901764 146.49568
-25.645201 179.36942 -9.8731108 -124.35388 -12.988456 -115.26797 -13.608167 -115.80045
-25.431438 -174.81311 -12.955365 -115.43707 -10.446687 -128.84117 -12.916438 -116.39992
-25.370577 179.36676 -13.595576 -115.7616 -12.904152 -116.39339 -9.7919235 -124.83701
460000000 -1.8993981 -64.965431 -78.36602 60.315304 -80.142387 -162.3866 -93.181084 -89.518265
-25.084431 166.6129 -9.7928009 -126.83704 -13.021948 -118.01643 -13.663918 -118.33112
-25.295343 177.24956 -13.01895 -117.89021 -10.420853 -131.47452 -12.941027 -118.84574
-25.159163 169.8644 -13.650074 -118.49552 -12.929696 -119.19326 -9.7703161 -127.44566
470000000 -1.9699646 -71.149521 -75.690376 -44.90556 -96.29628 131.06239 -74.221443 34.068714
-24.321608 156.31035 -9.7916422 -129.52591 -13.011639 -120.44439 -13.666506 -121.09176
-24.400095 167.57986 -13.03755 -120.63815 -10.324712 -133.83574 -12.946909 -121.69117
-24.420921 160.84605 -13.676223 -121.01903 -12.929561 -121.74658 -9.7468929 -130.14149
480000000 -2.0384555 -77.449638 -79.813538 -77.144913 -80.907875 23.093807 -75.247772 149.28539
-23.466116 144.63225 -9.7828941 -132.05923 -13.069458 -123.29244 -13.709511 -123.78498
-23.771736 155.0988 -13.058676 -123.04712 -10.297902 -136.4025 -12.981657 -124.09738
-23.765551 148.40053 -13.689849 -123.63654 -12.985516 -124.14697 -9.7414646 -132.58974
490000000 -2.1092911 -83.764221 -69.970512 -23.871584 -81.326561 -43.647896 -77.347366 -161.45329
-22.991777 134.6216 -9.7624063 -134.52425 -13.085502 -125.84334 -13.720417 -126.26141
-23.200077 145.67075 -13.085428 -125.66339 -10.30207 -138.98177 -12.994583 -127.10167
-22.991106 139.32835 -13.715327 -126.13225 -13.014824 -126.85409 -9.7141809 -135.47546
500000000 -2.1622443 -90.00441 -81.136185 118.21883 -83.448227 19.498114 -76.060013 4.7847443
-22.085093 125.8615 -9.7527637 -136.87494 -13.099593 -128.33327 -13.756432 -128.79112
-22.193125 135.10722 -13.110304 -128.32016 -10.213937 -141.36476 -13.034502 -129.39442
-22.101961 128.74875 -13.724367 -128.74564 -13.012416 -129.4028 -9.6762867 -138.12105
510000000 -2.2702482 -96.432686 -75.783058 -168.09096 -81.264397 -65.122696 -77.021042 90.023277
-21.664371 115.54719 -9.6753187 -139.92726 -13.1254 -131.10005 -13.757751 -131.27885
-21.778639 123.30846 -13.139903 -130.9696 -10.222253 -144.11176 -13.026421 -132.03604
-21.532095 117.92932 -13.769631 -131.54996 -13.045715 -132.1526 -9.6140127 -140.69913
520000000 -2.3736918 -102.82656 -79.604904 -87.877991 -73.680611 17.501223 -85.740448 -4.6800704
-20.81864 107.14996 -9.6431799 -142.20168 -13.164046 -133.58954 -13.803718 -133.98306
-21.161131 114.609 -13.168149 -133.41423 -10.188337 -146.54605 -13.076112 -134.70204
-20.963474 107.95024 -13.798623 -133.98375 -13.071534 -134.80264 -9.6025229 -143.26582
530000000 -2.4726157 -109.14451 -79.245216 -148.75703 -80.246193 -89.277443 -88.599411 53.61694
-20.278931 94.764351 -9.6537867 -144.96355 -13.193765 -136.34418 -13.826801 -136.79605
-20.375982 103.21338 -13.207437 -136.15384 -10.181589 -149.57259 -13.106756 -137.39819
-20.213583 97.68325 -13.828999 -136.68936 -13.106821 -137.45932 -9.5933008 -145.78825
540000000 -2.5939789 -115.54484 -77.743858 43.574211 -79.157982 -44.201027 -78.901955 -166.91733
-19.462572 84.633347 -9.6073465 -147.65686 -13.241449 -138.81042 -13.848406 -139.36578
-19.734819 92.836884 -13.222932 -138.81566 -10.146131 -152.05057 -13.115354 -140.0394
-19.559488 87.826218 -13.844275 -139.38594 -13.129484 -140.09947 -9.5665522 -148.4901
