!Keysight Technologies,P5024B,MY61400385,A.19.30.21
!Date: Wednesday, November 12, 2025 11:33:23
!Correction: S11(C  4-Port  ) 
!S12(C  4-Port  ) 
!S13(C  4-Port  ) 
!S14(C  4-Port  ) 
!S21(C  4-Port  ) 
!S22(C  4-Port  ) 
!S23(C  4-Port  ) 
!S24(C  4-Port  ) 
!S31(C  4-Port  ) 
!S32(C  4-Port  ) 
!S33(C  4-Port  ) 
!S34(C  4-Port  ) 
!S41(C  4-Port  ) 
!S42(C  4-Port  ) 
!S43(C  4-Port  ) 
!S44(C  4-Port  ) 
!S4P File: Measurements: <S11,S12,S13,S14>,
!<S21,S22,S23,S24>,
!<S31,S32,S33,S34>,
!<S41,S42,S43,S44>:
# Hz S  dB   R 50
10000000 -0.23404968 -24.3979 -80.735847 159.74387 -81.769974 -7.2304382 -80.747459 -155.23203
-78.224617 -29.93869 -10.717115 -2.8614366 -12.330828 -2.4983099 -12.974689 -2.4705632
-82.179596 -95.735008 -12.340297 -2.5350294 -11.89864 -3.274364 -12.326468 -2.5006266
-75.624435 -1.7278855 -12.986955 -2.63118 -12.32131 -2.5840762 -10.762016 -3.123148
20000000 -0.33317289 -47.14706 -86.142464 173.31778 -95.342644 27.502998 -75.633308 68.324303
-78.021706 -72.843201 -10.707642 -5.7103486 -12.322485 -5.1630034 -12.964243 -5.1611319
-92.404739 -178.70284 -12.315248 -5.1277752 -11.898912 -5.9935656 -12.301334 -5.1826172
-85.167946 21.286011 -12.975063 -5.1926293 -12.314489 -5.1925726 -10.733693 -5.9184589
30000000 -0.46302944 -68.420998 -81.334549 -101.99053 -91.492378 134.93718 -79.128181 69.618416
-83.905785 123.66805 -10.689106 -8.5433426 -12.339543 -7.7918835 -12.989859 -7.8169713
-78.869255 -79.531761 -12.330882 -7.8502679 -11.923223 -9.0079584 -12.327665 -7.8341527
-98.644745 162.30373 -12.979813 -7.9391251 -12.328149 -7.8696246 -10.704851 -8.5036697
40000000 -0.61395127 -88.044647 -71.127258 145.97626 -79.3078 85.736458 -73.675995 23.575222
-67.463799 -77.878372 -10.709961 -11.164164 -12.358517 -10.490436 -13.022008 -10.503372
-68.825417 -93.796173 -12.340293 -10.441913 -11.89251 -12.490253 -12.355268 -10.589178
-69.486992 -91.828613 -12.994231 -10.526513 -12.351178 -10.628465 -10.742265 -11.644808
50000000 -0.773664 -105.7913 -91.780624 -30.216108 -95.732826 125.51097 -79.288185 64.779388
-76.410004 118.23675 -10.651069 -14.348246 -12.359571 -12.975174 -13.004608 -13.098225
-67.754738 33.372108 -12.338619 -12.943558 -11.863273 -14.975884 -12.340133 -13.109529
-69.516098 17.883648 -12.997035 -12.987414 -12.353578 -13.091082 -10.732202 -14.500041
60000000 -0.88649195 -121.86831 -78.231911 -108.74147 -76.030334 -160.61407 -83.289406 -126.87089
-72.986588 172.92856 -10.629025 -17.394836 -12.349794 -15.637225 -12.999635 -15.621223
-81.603256 170.63986 -12.34884 -15.624483 -11.810636 -18.107716 -12.347251 -15.732205
-77.081184 159.93816 -12.998955 -15.636103 -12.339615 -15.703334 -10.673595 -17.343784
70000000 -1.0194619 -136.18622 -88.854874 -134.35791 -77.698456 -17.184027 -84.241669 81.748444
-64.061577 83.162857 -10.61305 -20.064161 -12.360023 -18.075821 -13.021743 -18.013491
-60.617199 72.891273 -12.359092 -18.018707 -11.82728 -21.344282 -12.360373 -18.145458
-61.713791 77.537567 -13.009488 -18.097385 -12.34559 -18.298904 -10.69271 -20.255493
80000000 -1.1025563 -149.4214 -79.57119 143.97772 -76.048645 42.369808 -81.086197 68.213989
-72.557663 -55.71793 -10.617049 -22.672102 -12.385215 -20.525433 -13.047884 -20.699017
-71.695236 -168.89656 -12.379699 -20.655802 -11.825105 -24.094408 -12.392991 -20.845264
-72.397797 -146.86162 -13.036353 -20.753647 -12.375196 -20.730417 -10.664245 -22.82987
90000000 -1.2163249 -161.37213 -77.294556 99.284027 -82.725586 82.123207 -90.707588 -19.33411
-64.714867 -170.64819 -10.647962 -25.858067 -12.391564 -23.046442 -13.050197 -23.070429
-64.288795 154.38312 -12.394743 -23.180956 -11.773372 -27.11672 -12.388438 -23.371334
-65.561333 -177.83701 -13.040374 -23.291594 -12.382521 -23.284151 -10.67431 -25.804399
100000000 -1.3094475 -172.57193 -82.223412 139.45035 -78.332672 -43.840889 -85.169334 -10.078579
-73.902367 -165.4776 -10.607634 -28.7953 -12.411014 -25.559217 -13.051012 -25.717176
-72.135841 -111.86227 -12.386603 -25.763304 -11.769646 -30.043577 -12.382748 -25.896076
-70.045372 -137.55858 -13.052272 -25.844213 -12.398687 -25.872528 -10.636987 -28.536028
110000000 -1.3732401 176.89444 -75.330063 169.75873 -78.984871 -167.82675 -83.094666 103.74471
-62.453087 132.47394 -10.6234 -31.340651 -12.403622 -28.259007 -13.042902 -28.415869
-62.785179 146.58632 -12.408545 -28.23283 -11.730994 -33.170223 -12.38477 -28.606405
-60.000977 132.31042 -13.058306 -28.386711 -12.395634 -28.606886 -10.601661 -31.61834
120000000 -1.4301687 166.84468 -78.882095 -116.30877 -84.426315 121.30224 -84.314621 111.63651
-71.445587 176.38229 -10.564765 -34.114044 -12.397767 -30.91494 -13.035115 -31.037647
-62.119373 85.734352 -12.412949 -30.836828 -11.715572 -36.161911 -12.383399 -31.205608
-61.749916 86.122147 -13.056376 -30.955353 -12.391124 -31.187208 -10.600724 -34.347942
130000000 -1.5015628 157.4301 -74.039986 88.904175 -77.539459 -121.06335 -80.026573 174.5341
-65.078598 -100.78645 -10.572867 -37.213726 -12.401515 -33.322506 -13.059835 -33.487835
-61.897873 -152.5309 -12.42053 -33.344299 -11.704815 -39.086609 -12.413056 -33.729561
-62.231705 -159.07603 -13.070785 -33.445259 -12.392929 -33.706886 -10.622095 -37.281029
140000000 -1.5897949 148.4631 -82.422356 18.490005 -80.639702 62.700291 -73.878708 -134.68785
-73.320313 56.500164 -10.592674 -39.9044 -12.427473 -35.929943 -13.098012 -35.953606
-63.501312 132.71799 -12.436315 -35.902294 -11.708941 -41.924641 -12.428857 -36.201073
-68.635834 91.300636 -13.087273 -36.029007 -12.413559 -36.243179 -10.650887 -40.255371
150000000 -1.6572647 140.04805 -77.555351 -122.94099 -86.61969 -104.22058 -79.112694 169.24408
-74.749908 -108.92749 -10.543547 -42.742329 -12.446314 -38.478348 -13.089194 -38.603256
-66.077827 -157.87752 -12.436033 -38.494862 -11.698282 -44.97057 -12.42095 -38.827087
-61.965816 -150.57919 -13.089995 -38.598606 -12.444051 -38.822975 -10.585288 -43.076439
160000000 -1.7348176 132.05136 -80.646774 -149.01294 -75.826965 -150.57483 -82.950607 56.388779
-62.342079 -140.203 -10.529357 -45.464497 -12.46028 -40.998753 -13.113536 -41.07756
-62.320461 103.35852 -12.461614 -40.995331 -11.613434 -48.123722 -12.452305 -41.388874
-62.300636 131.82329 -13.112182 -41.187798 -12.43847 -41.410271 -10.532866 -45.832962
170000000 -1.8302792 124.76612 -73.750984 131.1131 -82.271767 45.118446 -77.204224 -151.94418
-66.548927 158.63493 -10.513032 -48.181339 -12.447179 -43.644768 -13.109227 -43.837688
-62.728909 162.23898 -12.459457 -43.696728 -11.547362 -51.109848 -12.447339 -44.008987
-64.960426 146.75467 -13.103857 -43.838219 -12.435444 -44.067478 -10.48565 -48.757572
180000000 -1.788821 117.7985 -87.437416 56.231617 -82.21801 100.05151 -78.523148 119.62997
-69.315201 153.09161 -10.46657 -51.076355 -12.461668 -46.124119 -13.109353 -46.381187
-72.019821 126.70057 -12.482485 -46.200928 -11.551009 -54.008133 -12.449821 -46.642765
-70.668167 108.64877 -13.11916 -46.397701 -12.443789 -46.578552 -10.522363 -51.616905
190000000 -1.7774252 110.7405 -83.027031 -65.864998 -75.402992 92.934982 -88.524635 -21.728497
-73.903015 87.033287 -10.495668 -53.764141 -12.496222 -48.766785 -13.134358 -49.039314
-63.700027 121.61988 -12.487367 -48.644039 -11.517317 -56.980419 -12.480174 -49.226986
-65.380676 155.19185 -13.140862 -48.834232 -12.473529 -49.220406 -10.508559 -54.55196
200000000 -1.7297101 103.34779 -80.12603 -13.792826 -84.137856 -32.447708 -85.117111 141.23454
-54.879848 114.69352 -10.467759 -56.713684 -12.510167 -51.265881 -13.152244 -51.48365
-58.990696 129.81609 -12.506846 -51.29895 -11.472584 -60.053436 -12.481951 -51.83625
-57.465523 104.08275 -13.15568 -51.50172 -12.494433 -51.68713 -10.426887 -57.286636
210000000 -1.7028105 96.319626 -80.48214 -120.01347 -84.994698 -130.57312 -81.307426 -116.75852
-58.836166 119.78256 -10.495294 -59.575703 -12.497138 -53.833023 -13.176354 -53.915241
-61.511242 51.616852 -12.519613 -53.775345 -11.48484 -63.045776 -12.513597 -54.261204
-57.546101 71.10611 -13.166631 -53.958462 -12.488823 -54.278683 -10.453053 -60.011806
220000000 -1.6926385 89.230957 -77.365906 -79.956856 -78.140152 125.67921 -81.952515 53.734093
-54.075436 80.346352 -10.414429 -62.585613 -12.545428 -56.324463 -13.183511 -56.566246
-57.881584 114.28622 -12.54435 -56.429546 -11.373085 -65.873207 -12.513265 -56.86005
-55.64188 87.279991 -13.18438 -56.659599 -12.512414 -56.967758 -10.43537 -62.703568
230000000 -1.6856821 82.265221 -85.347084 109.37454 -84.449417 17.564425 -78.43119 -83.692818
-51.20377 66.665405 -10.388424 -65.349876 -12.536595 -58.921761 -13.207823 -59.099884
-52.159973 91.512711 -12.542414 -58.986553 -11.353436 -68.797966 -12.554435 -59.53706
-51.52269 84.848442 -13.179141 -59.185665 -12.514203 -59.506638 -10.442439 -65.750641
240000000 -1.6571513 75.432449 -75.916847 73.841621 -78.810959 173.03185 -77.808167 5.8734088
-52.082405 91.365288 -10.371998 -68.055382 -12.561884 -61.461651 -13.192883 -61.694504
-47.354549 93.033829 -12.551531 -61.513435 -11.333653 -71.16375 -12.532856 -62.086456
-47.80698 88.542336 -13.190297 -61.772846 -12.545238 -62.013741 -10.375334 -68.322144
250000000 -1.6628054 68.783661 -87.315285 -46.431774 -80.785767 24.880688 -76.51355 -92.25695
-48.003025 51.63237 -10.32886 -70.398453 -12.576408 -64.131065 -13.256919 -64.131905
-50.335312 79.124161 -12.568521 -63.981136 -11.238067 -73.984558 -12.558645 -64.537125
-49.339882 63.544193 -13.21284 -64.251213 -12.551658 -64.700706 -10.323109 -71.228065
260000000 -1.645521 62.286026 -82.662605 69.217346 -80.873566 29.901121 -88.976486 94.320847
-45.029629 32.351257 -10.329912 -73.395088 -12.590872 -66.594505 -13.259008 -66.618996
-49.449356 57.804008 -12.564771 -66.567085 -11.224647 -76.854057 -12.577124 -67.162994
-48.744114 37.30365 -13.212914 -66.785042 -12.569866 -67.089569 -10.315077 -73.965584
270000000 -1.6279809 55.696747 -77.950134 -23.584467 -70.984016 -2.5336282 -81.652695 10.324321
-42.804783 34.656643 -10.328722 -76.314888 -12.604736 -69.109886 -13.243556 -69.376282
-45.07272 40.762672 -12.601599 -69.144035 -11.24309 -79.764809 -12.586153 -69.761421
-43.752754 28.195629 -13.233684 -69.369652 -12.580777 -69.732994 -10.270683 -76.801407
280000000 -1.6206621 49.212055 -89.76487 174.24205 -82.288734 -10.779349 -81.10141 -123.52943
-43.156322 27.367321 -10.2727 -79.102806 -12.645392 -71.560593 -13.288206 -71.913177
-42.376389 40.991272 -12.633755 -71.599007 -11.201447 -82.449913 -12.599427 -72.303444
-41.870632 30.413071 -13.280095 -71.867149 -12.605412 -72.222961 -10.272916 -79.249557
290000000 -1.6217483 42.6912 -88.86853 -142.01633 -82.431503 90.708237 -77.081718 127.58115
-41.304054 6.3421044 -10.250276 -81.634911 -12.629687 -74.31292 -13.277781 -74.530762
-41.167381 21.368216 -12.631326 -74.181313 -11.104808 -85.518265 -12.606917 -74.916306
-40.688202 11.004806 -13.274624 -74.488274 -12.595025 -75.110466 -10.21846 -82.178696
300000000 -1.6125597 36.326328 -78.441238 158.19916 -75.78611 -135.27411 -86.704697 174.75575
-38.723263 -7.5909367 -10.189947 -84.507637 -12.667972 -76.656357 -13.28162 -77.059685
-39.331738 2.3277936 -12.643541 -76.838371 -11.081343 -88.328102 -12.619997 -77.559181
-38.858047 -7.7663493 -13.282751 -77.068924 -12.642022 -77.37056 -10.232571 -84.905609
310000000 -1.6420835 29.778902 -82.791519 -44.793541 -73.894287 2.6167457 -90.023102 -146.48524
-37.417709 -23.378693 -10.182195 -87.103424 -12.671701 -79.360184 -13.322902 -79.67897
-37.69503 -11.116449 -12.680226 -79.366432 -11.016812 -90.914505 -12.6574 -80.159622
-37.504166 -21.058853 -13.316882 -79.637535 -12.634703 -80.119293 -10.188645 -87.85714
320000000 -1.6204125 23.581116 -77.550247 169.84267 -83.485237 -39.521385 -85.3116 -124.70535
-36.405788 -37.704109 -10.163785 -89.661804 -12.675954 -81.965187 -13.329247 -82.12249
-36.66637 -25.28414 -12.692118 -81.952812 -10.950058 -93.738373 -12.662853 -82.577217
-36.452515 -34.86504 -13.328202 -82.228706 -12.646993 -82.657631 -10.162082 -90.302696
330000000 -1.6221794 17.25013 -82.404503 143.92447 -80.754303 118.73135 -81.337791 82.553802
-35.078976 -51.247776 -10.112201 -92.295425 -12.714355 -84.394341 -13.37427 -84.741776
-35.423576 -38.822941 -12.706941 -84.274483 -10.98375 -96.446335 -12.694181 -85.184402
-35.122841 -49.463718 -13.350505 -84.599464 -12.677633 -85.286278 -10.153245 -93.040703
340000000 -1.6091338 11.035409 -76.324295 -95.513382 -79.955902 -161.76698 -79.904358 141.48479
-34.064003 -65.814049 -10.090205 -94.715523 -12.746328 -86.894814 -13.376214 -87.171234
-34.150734 -53.679352 -12.719707 -86.941994 -10.923965 -99.014572 -12.697831 -87.671143
-34.00095 -63.560558 -13.358449 -87.291908 -12.694159 -87.739006 -10.103848 -95.610878
350000000 -1.6226009 4.8864713 -89.105377 -63.683277 -88.094627 51.222923 -86.308945 169.20459
-32.92432 -80.288803 -10.098333 -97.31488 -12.740569 -89.570457 -13.408499 -89.938988
-33.191296 -68.873352 -12.753552 -89.504616 -10.877462 -102.01339 -12.727421 -90.367126
-33.102665 -77.87323 -13.390122 -89.932274 -12.705554 -90.436211 -10.043573 -98.370605
360000000 -1.6171807 -1.2313688 -79.113487 140.9901 -86.414078 -45.545029 -83.076248 -13.97586
-32.0145 -90.481071 -10.104851 -100.26302 -12.75573 -92.112732 -13.410314 -92.453621
-32.305107 -81.665085 -12.747013 -92.132027 -10.886362 -104.68229 -12.731038 -93.054001
-32.115494 -90.447685 -13.388141 -92.521309 -12.723562 -93.00898 -10.033525 -101.06696
370000000 -1.6160517 -7.5314031 -78.483688 141.43153 -76.403854 122.34476 -82.070198 -24.108959
-31.253798 -103.58814 -10.079066 -103.02577 -12.788352 -94.729973 -13.420177 -95.012772
-31.742264 -93.359398 -12.793578 -94.698288 -10.804195 -107.30659 -12.74124 -95.513474
-31.599899 -100.27682 -13.424139 -95.035728 -12.724695 -95.599129 -9.9936142 -103.75768
380000000 -1.6532588 -13.567314 -74.212349 -160.00031 -76.723061 -34.869904 -82.677338 -4.2306089
-30.562603 -116.6803 -10.063747 -105.85651 -12.836958 -97.251907 -13.458556 -97.573753
-31.345951 -106.67494 -12.805478 -97.254242 -10.806003 -110.17053 -12.756623 -98.037117
-31.223495 -115.18684 -13.435431 -97.680794 -12.781219 -98.139137 -10.021454 -106.53184
390000000 -1.647426 -20.080751 -98.087227 -126.41119 -80.491737 -32.306049 -82.43364 2.0580337
-30.279675 -129.78746 -10.029828 -108.53767 -12.825907 -99.786919 -13.482244 -100.18988
-29.997089 -115.34639 -12.817924 -99.795097 -10.760439 -112.9814 -12.757425 -100.60104
-29.942719 -122.86633 -13.456427 -100.2102 -12.782288 -100.74023 -9.9593945 -108.9599
400000000 -1.6818954 -26.303152 -76.603645 -156.73027 -87.178452 -17.842331 -81.587715 -10.015083
-29.717443 -138.97758 -9.9950609 -111.38892 -12.854476 -102.5148 -13.475702 -102.97031
-28.804592 -128.41606 -12.854723 -102.5191 -10.741348 -115.64155 -12.822141 -103.30816
-28.867979 -135.9566 -13.490055 -102.87705 -12.81762 -103.34818 -9.9750786 -111.55854
410000000 -1.697059 -32.51918 -79.025688 24.597334 -76.447929 30.186663 -83.735786 -177.56117
-27.925476 -151.34761 -9.9569359 -114.21694 -12.875241 -105.08836 -13.510099 -105.43169
-28.953827 -142.8364 -12.878481 -105.05807 -10.680078 -118.50114 -12.806026 -105.8843
-28.716801 -150.11627 -13.491385 -105.3884 -12.827651 -105.94815 -9.8793669 -114.70691
420000000 -1.7105858 -38.697945 -76.788597 53.085953 -85.591965 -94.276917 -74.807556 36.278385
-28.226002 -162.97714 -9.9256668 -116.81554 -12.887394 -107.53371 -13.507174 -107.98625
-27.795338 -148.23979 -12.911415 -107.67743 -10.649471 -121.21976 -12.829437 -108.71059
-27.649603 -157.21745 -13.543722 -108.04572 -12.838498 -108.5072 -9.9097691 -117.57896
430000000 -1.7198999 -44.695511 -94.293045 99.343025 -89.885315 46.681965 -88.649353 92.324272
-26.751932 -172.74167 -9.9181194 -118.83504 -12.906779 -110.0681 -13.556585 -110.47972
-27.382256 -163.54478 -12.921383 -110.1392 -10.589403 -123.85272 -12.846243 -111.00113
-27.422316 -170.29828 -13.546873 -110.46548 -12.897283 -111.15087 -9.8701763 -119.99884
440000000 -1.7719558 -50.915867 -76.880196 47.617836 -85.638916 160.38936 -82.072884 -23.26153
-26.557318 178.04527 -9.8868074 -121.90135 -12.920307 -112.50197 -13.562067 -113.06344
-26.453514 -171.99193 -12.957275 -112.67368 -10.533234 -126.30928 -12.883691 -113.71619
-26.276243 -179.23799 -13.571493 -113.0712 -12.862274 -113.73274 -9.807003 -122.6033
450000000 -1.8015466 -57.092548 -77.986198 -152.78685 -78.9981 110.01698 -77.751465 76.765938
-25.560738 167.79062 -9.8290462 -124.48953 -12.969445 -115.14997 -13.604052 -115.66588
-25.897404 175.92018 -12.967196 -115.33254 -10.512024 -128.92221 -12.904643 -116.26471
-25.813688 168.59229 -13.594477 -115.73989 -12.8863 -116.34593 -9.8032465 -125.1876
460000000 -1.872103 -63.183716 -73.353516 -92.327042 -78.701668 31.890837 -95.15065 94.627045
-25.061943 159.53006 -9.8463593 -126.96725 -13.003806 -117.94432 -13.651083 -118.28956
-25.273445 164.35646 -13.00101 -117.87933 -10.465724 -131.96802 -12.964545 -118.99126
-24.981627 157.64082 -13.623813 -118.29556 -12.925679 -118.82208 -9.788723 -128.11481
470000000 -1.9282893 -69.812576 -76.214989 -32.274269 -80.343285 59.915581 -79.070076 131.50478
-24.748938 150.71487 -9.7921181 -129.83777 -13.038822 -120.49685 -13.647659 -120.97142
-24.016191 156.31032 -13.023366 -120.55317 -10.436934 -133.9948 -12.957836 -121.43283
-23.862167 149.24539 -13.638528 -121.02605 -12.944397 -121.42217 -9.7282372 -130.59729
480000000 -1.9601581 -76.068054 -79.196457 91.404137 -85.603348 32.030598 -76.628181 -10.400787
-23.527157 138.3324 -9.8035183 -132.28546 -13.0544 -122.98884 -13.692441 -123.45224
-23.845491 144.97485 -13.061405 -122.96297 -10.396434 -136.80179 -12.963074 -124.1598
-23.700054 137.61458 -13.673977 -123.39889 -12.975768 -123.90459 -9.7043467 -133.30011
490000000 -2.0455408 -82.484421 -87.030663 31.183943 -81.808098 125.05287 -85.214951 60.88641
-23.031921 127.76131 -9.7530346 -134.89903 -13.071325 -125.55177 -13.697273 -126.03587
-23.28726 137.12248 -13.057258 -125.62767 -10.342196 -139.39131 -13.00218 -126.56215
-23.124615 129.87001 -13.696148 -126.07039 -12.969049 -126.66832 -9.7132254 -135.72383
500000000 -2.1214855 -88.693016 -80.305122 -119.29758 -73.836769 -93.122383 -76.971489 132.80161
-22.201706 117.17957 -9.6935291 -137.19557 -13.102715 -128.0524 -13.714969 -128.67781
-22.523994 126.10673 -13.091695 -128.09888 -10.349502 -142.29666 -13.019408 -129.51561
-22.427937 118.99328 -13.713181 -128.52977 -12.993266 -129.40958 -9.6800451 -138.67471
510000000 -2.189009 -95.025749 -78.288895 -122.52433 -86.579124 -162.72021 -75.805283 -59.017963
-21.538706 107.38441 -9.623291 -139.88568 -13.12436 -130.77873 -13.732539 -131.17722
-22.089104 116.42967 -13.126809 -130.70193 -10.309467 -144.89149 -13.029153 -131.92006
-22.009939 108.89736 -13.757164 -131.18196 -13.048245 -132.03955 -9.6040506 -140.83849
520000000 -2.2588754 -101.14771 -82.774574 -139.32457 -84.126976 83.257896 -84.654121 77.829155
-21.003735 97.664459 -9.6094837 -142.75592 -13.160428 -133.38058 -13.787689 -133.69612
-21.459982 106.01081 -13.140845 -133.46571 -10.287256 -147.40173 -13.075468 -134.44411
-21.342413 98.896927 -13.770719 -133.96883 -13.097504 -134.51671 -9.60781 -143.17581
530000000 -2.3519342 -107.39905 -82.78508 -119.90334 -81.417084 -92.030685 -75.006317 125.31815
-20.357498 85.856323 -9.6257544 -145.12868 -13.190728 -136.142 -13.833783 -136.48352
-20.46607 95.824265 -13.171077 -136.02829 -10.173941 -150.18195 -13.106561 -137.23196
-20.359798 90.023224 -13.79465 -136.51549 -13.080194 -137.40515 -9.5750818 -146.14561
540000000 -2.4802024 -113.81151 -76.344757 160.09659 -74.626999 -117.46039 -76.146362 84.782982
-19.487617 78.351852 -9.5872841 -147.53746 -13.220837 -138.59752 -13.852093 -139.19371
-19.746412 86.04467 -13.20706 -138.66893 -10.158183 -152.60138 -13.117266 -139.89899
-19.627726 79.798271 -13.838313 -139.21629 -13.129523 -139.88136 -9.5512466 -148.85445
