!Keysight Technologies,P5024B,MY61400385,A.19.30.21
!Date: Tuesday, September 30, 2025 11:48:44
!Correction: S11(C  4-Port  ) 
!S12(C  4-Port  ) 
!S13(C  4-Port  ) 
!S14(C  4-Port  ) 
!S21(C  4-Port  ) 
!S22(C  4-Port  ) 
!S23(C  4-Port  ) 
!S24(C  4-Port  ) 
!S31(C  4-Port  ) 
!S32(C  4-Port  ) 
!S33(C  4-Port  ) 
!S34(C  4-Port  ) 
!S41(C  4-Port  ) 
!S42(C  4-Port  ) 
!S43(C  4-Port  ) 
!S44(C  4-Port  ) 
!S4P File: Measurements: <S11,S12,S13,S14>,
!<S21,S22,S23,S24>,
!<S31,S32,S33,S34>,
!<S41,S42,S43,S44>:
# Hz S  dB   R 50
10000000 -0.13236819 -24.526333 -89.558502 -109.00328 -88.192482 66.07589 -84.091911 87.282997
-81.505455 57.958992 -10.629286 -2.9959228 -12.332013 -2.4157553 -12.964091 -2.3148623
-74.423721 -44.390175 -12.310555 -2.3332839 -11.822431 -3.315094 -12.305027 -2.3643441
-93.925232 42.06625 -12.972754 -2.3852131 -12.324435 -2.5212469 -10.627602 -2.9817724
20000000 -0.25532085 -47.499638 -90.2967 57.930981 -82.349823 140.88579 -86.637619 43.876652
-78.59269 98.056915 -10.628492 -5.7554235 -12.319957 -4.948596 -12.95312 -4.9829726
-85.673508 17.077654 -12.30383 -4.9882703 -11.804626 -6.0138597 -12.294436 -5.0255451
-82.70269 -172.51079 -12.969899 -5.0385537 -12.32221 -5.027616 -10.618784 -5.8086605
30000000 -0.42807797 -68.976616 -76.52272 132.66524 -76.67926 -22.403191 -76.046303 -58.43005
-77.924332 -22.183609 -10.624264 -8.5377331 -12.330273 -7.7906079 -12.978731 -7.6797724
-77.687164 86.014626 -12.321223 -7.7180386 -11.776738 -9.0251179 -12.322805 -7.7667356
-81.16568 -34.677563 -12.987516 -7.7470312 -12.333693 -7.9328933 -10.595326 -8.3424597
40000000 -0.57640719 -88.791405 -70.826653 74.577583 -88.257347 117.65697 -88.361534 -105.67889
-73.412186 138.0274 -10.621581 -11.491746 -12.335895 -10.219929 -12.993132 -10.256933
-85.617897 -64.180214 -12.337397 -10.102401 -11.749617 -11.896894 -12.325881 -10.318177
-92.04776 25.36924 -12.998321 -10.18 -12.329796 -10.416291 -10.630466 -11.129498
50000000 -0.76108509 -106.56924 -81.379585 -178.99706 -78.242645 -170.42964 -80.066277 -142.75359
-72.675529 -120.63555 -10.603824 -14.012013 -12.344591 -12.936252 -13.01014 -12.89867
-73.922836 179.3793 -12.347284 -13.014795 -11.681949 -15.08388 -12.347122 -12.973303
-68.977882 162.6543 -13.011107 -13.065453 -12.346331 -13.082394 -10.653836 -14.20682
60000000 -0.90896904 -122.71133 -84.369934 2.7747314 -92.707329 -7.1018696 -80.398087 136.94963
-75.291908 81.855553 -10.555428 -16.869698 -12.350878 -15.502031 -12.992834 -15.563343
-67.667175 21.498348 -12.33215 -15.417255 -11.710903 -17.904453 -12.351797 -15.581323
-72.622284 57.522236 -12.994387 -15.475443 -12.342464 -15.666134 -10.561763 -17.31419
70000000 -1.0582849 -137.04297 -78.473251 9.2452097 -84.344505 79.176941 -84.35186 26.955132
-75.044174 -159.75089 -10.564716 -19.706661 -12.349406 -17.989986 -12.989212 -18.024464
-83.002022 -155.09355 -12.359895 -18.018545 -11.728321 -20.773359 -12.336201 -18.163441
-78.450798 -160.47076 -13.0109 -18.117857 -12.337963 -18.188242 -10.588113 -19.906712
80000000 -1.1440644 -150.28195 -81.400375 19.794001 -75.168427 124.58524 -90.58168 -147.71013
-61.107574 17.303123 -10.531499 -22.576559 -12.369603 -20.63059 -13.010793 -20.639204
-65.743492 4.6663699 -12.356577 -20.540627 -11.73069 -23.940569 -12.35535 -20.771873
-74.463692 19.586 -13.020578 -20.539516 -12.366979 -20.765993 -10.593283 -22.746071
90000000 -1.2612662 -162.25174 -83.270035 -67.915649 -81.548615 47.257996 -77.184944 -37.288269
-68.61676 6.0747809 -10.598907 -25.479965 -12.374584 -23.054592 -13.023632 -23.074841
-67.442619 -25.598564 -12.385685 -23.00246 -11.65892 -27.036205 -12.360921 -23.24868
-64.176758 -13.301811 -13.044703 -23.090166 -12.368491 -23.338781 -10.547913 -25.762255
100000000 -1.3268069 -173.59236 -80.995331 -7.0682244 -83.33773 118.87695 -82.811081 -179.97261
-69.370506 83.766556 -10.532763 -28.072021 -12.396735 -25.621241 -13.035862 -25.710073
-73.729286 100.38408 -12.388577 -25.551842 -11.72263 -30.149693 -12.373957 -25.923647
-77.792519 -61.213718 -13.04183 -25.732407 -12.397428 -25.92811 -10.553643 -28.795235
110000000 -1.3855715 176.02127 -83.905251 16.660971 -87.900909 79.114723 -80.126831 -141.55496
-65.683632 -31.725685 -10.537084 -31.083385 -12.391994 -28.359913 -13.042986 -28.328424
-67.579376 -75.332863 -12.384513 -28.220591 -11.629214 -32.724045 -12.391722 -28.52434
-69.171967 -74.448334 -13.049833 -28.327461 -12.403183 -28.714731 -10.53605 -31.299845
120000000 -1.45075 166.26125 -89.176315 -107.108 -83.662964 -66.411804 -76.782036 -1.5391072
-58.757374 -117.79496 -10.526714 -34.007305 -12.38332 -30.807549 -13.043337 -31.046093
-57.910172 -117.41212 -12.381836 -30.847279 -11.631192 -35.744572 -12.38328 -31.232731
-59.309086 -102.11138 -13.036807 -30.94425 -12.386686 -31.126165 -10.501575 -34.448013
130000000 -1.5307523 156.72476 -84.775734 162.54784 -74.237747 -155.1525 -79.326408 -34.888508
-64.688995 -98.693512 -10.542526 -36.74123 -12.429509 -33.42955 -13.063664 -33.480312
-63.562424 174.52625 -12.408893 -33.25116 -11.591873 -38.892994 -12.40891 -33.714397
-64.975945 -177.60173 -13.066488 -33.385338 -12.42706 -33.82135 -10.548949 -37.026318
140000000 -1.5555753 147.87643 -76.966721 -36.382835 -82.436974 39.450939 -81.664429 -67.024925
-63.73481 -20.307207 -10.504211 -39.727192 -12.454206 -35.902218 -13.085442 -36.106617
-64.254448 -87.185364 -12.421118 -35.948139 -11.628102 -41.981102 -12.429014 -36.26162
-65.943268 -72.304489 -13.069548 -36.026196 -12.442616 -36.305157 -10.516794 -39.909092
150000000 -1.6047372 139.36214 -79.556717 112.83395 -80.484367 52.945007 -78.644615 77.294586
-67.929626 176.38466 -10.540338 -42.536694 -12.426496 -38.380909 -13.087749 -38.675747
-84.904022 144.84708 -12.451647 -38.465977 -11.551537 -44.831985 -12.430973 -38.884155
-68.614075 170.98386 -13.108624 -38.688171 -12.423144 -38.75135 -10.474682 -42.903519
160000000 -1.6428521 131.13779 -86.070892 -127.41309 -88.811104 -166.84744 -89.053909 23.94207
-70.804077 -88.056801 -10.506867 -45.574944 -12.455881 -41.083767 -13.110185 -41.214615
-69.151772 -79.058495 -12.453952 -41.035938 -11.568998 -47.57579 -12.442576 -41.456654
-63.229908 -53.291161 -13.108738 -41.203251 -12.456014 -41.482933 -10.478205 -45.862492
170000000 -1.7045131 123.22572 -85.522881 -179.5916 -81.280807 -82.551605 -77.661438 -176.71565
-62.040154 145.51697 -10.510592 -48.294788 -12.479922 -43.645344 -13.121841 -43.848591
-70.021172 -178.06422 -12.458386 -43.702858 -11.555446 -50.531986 -12.456129 -44.180439
-65.327904 155.1824 -13.104578 -43.930138 -12.456782 -44.118694 -10.439678 -48.523682
180000000 -1.7758625 115.71089 -77.102737 50.029045 -83.368248 154.14618 -80.505737 -76.636223
-67.157684 34.926449 -10.489923 -51.25135 -12.45267 -46.278595 -13.114351 -46.478748
-65.717636 -64.013023 -12.485381 -46.148663 -11.44628 -53.713089 -12.461198 -46.686924
-66.929588 -101.68143 -13.133039 -46.394497 -12.4575 -46.746536 -10.456162 -51.347073
190000000 -1.8346028 108.54769 -83.2901 -164.53195 -75.25901 -140.95113 -83.691803 157.06525
-71.974365 78.300156 -10.453748 -53.905224 -12.503408 -48.698002 -13.143721 -49.064194
-71.550117 123.57285 -12.479903 -48.748325 -11.448811 -56.885311 -12.481759 -49.423645
-70.381294 164.71173 -13.139183 -48.946579 -12.487894 -49.256241 -10.415014 -54.109573
200000000 -1.8373106 101.74184 -77.060204 87.188736 -89.000259 -134.85873 -76.165428 -27.06171
-63.187363 168.29131 -10.412575 -56.850723 -12.512138 -51.185467 -13.176764 -51.514416
-61.627213 161.3719 -12.511268 -51.328426 -11.439924 -59.465157 -12.506172 -51.862816
-59.431213 151.5191 -13.160913 -51.542942 -12.496727 -51.67189 -10.406315 -56.995277
210000000 -1.7944055 94.991318 -73.317314 -14.653981 -72.100685 -99.504906 -80.367699 -53.591644
-54.901505 129.39482 -10.375363 -59.671013 -12.53469 -53.75174 -13.182138 -54.043331
-57.469734 126.24857 -12.510412 -53.711594 -11.344086 -62.298885 -12.51586 -54.385807
-56.545544 114.76648 -13.158151 -53.948105 -12.520848 -54.3955 -10.411372 -59.74469
220000000 -1.7788578 88.110268 -78.453026 90.345245 -75.364235 -177.22543 -75.856232 87.861145
-57.405636 122.54194 -10.395961 -62.292522 -12.523633 -56.494995 -13.18613 -56.630856
-59.767208 139.07674 -12.550879 -56.36525 -11.358019 -65.393089 -12.51698 -57.004265
-57.834824 117.77002 -13.198991 -56.605213 -12.523119 -57.134811 -10.350921 -62.750641
230000000 -1.7257612 81.160034 -77.143753 -136.4339 -92.147499 57.458755 -80.676361 58.503876
-58.298153 117.35364 -10.360085 -65.380638 -12.55063 -58.864532 -13.192451 -59.185638
-56.77594 141.87766 -12.563523 -58.965824 -11.360104 -68.011292 -12.528491 -59.544762
-57.507633 124.94017 -13.204767 -59.297886 -12.529867 -59.531029 -10.339747 -65.499336
240000000 -1.7197549 74.455925 -84.908073 103.64798 -91.876549 -111.52045 -80.373169 95.184227
-53.076126 116.70863 -10.346631 -68.071808 -12.540751 -61.479374 -13.178856 -61.840916
-52.568241 107.26239 -12.546844 -61.447708 -11.300204 -71.275925 -12.5321 -62.313763
-54.716377 107.34601 -13.195813 -61.717972 -12.546654 -62.189823 -10.262124 -68.414337
250000000 -1.6910625 67.884926 -75.878525 142.17479 -76.595474 85.482933 -84.623199 48.043884
-53.026119 87.983887 -10.287005 -70.722351 -12.580546 -64.042999 -13.223447 -64.377525
-52.611259 106.62218 -12.569444 -64.118408 -11.268794 -74.234688 -12.545345 -64.815796
-50.900784 97.397705 -13.225178 -64.437286 -12.569325 -64.785881 -10.298073 -71.021111
260000000 -1.6795537 61.054432 -76.831238 -136.13132 -85.092758 20.291498 -83.363953 24.964737
-50.48526 78.574615 -10.29187 -73.590935 -12.592949 -66.411491 -13.259171 -66.79882
-50.77261 88.68325 -12.606273 -66.552513 -11.216761 -76.738457 -12.58007 -67.179726
-49.524128 86.924911 -13.255433 -66.813049 -12.566681 -67.117592 -10.288181 -73.838837
270000000 -1.684956 54.318993 -72.440933 -108.31828 -81.222298 -135.51132 -85.15065 5.2785902
-47.900005 58.786373 -10.307981 -76.187759 -12.607775 -69.122475 -13.256736 -69.520248
-48.544441 73.173347 -12.617276 -69.177734 -11.183985 -79.630844 -12.578342 -69.922974
-46.93858 64.23455 -13.264296 -69.462639 -12.582228 -69.957123 -10.230046 -76.776138
280000000 -1.6679957 47.891537 -82.516922 114.12609 -86.835793 104.97768 -80.927193 17.085632
-47.310715 46.071522 -10.23656 -78.856186 -12.638021 -71.738441 -13.272243 -72.125526
-46.342487 55.247768 -12.633373 -71.810677 -11.139379 -82.725449 -12.609532 -72.566719
-45.787544 52.31041 -13.276651 -72.108597 -12.613195 -72.438263 -10.190436 -79.554436
290000000 -1.6712766 41.579533 -79.421509 -107.52235 -78.894089 50.699451 -75.31881 -141.04524
-44.907009 30.837082 -10.158704 -81.516891 -12.637418 -74.373154 -13.27781 -74.573601
-44.924549 49.137386 -12.638551 -74.32814 -11.082993 -85.345154 -12.604687 -75.033737
-44.922756 39.934528 -13.276577 -74.67981 -12.628278 -75.066628 -10.158619 -82.230377
300000000 -1.6775886 35.051693 -94.756042 47.685986 -76.879295 -150.96727 -84.533112 124.32983
-42.271915 12.33952 -10.159213 -84.139244 -12.657226 -76.842194 -13.305679 -77.276566
-42.612839 32.516338 -12.655627 -76.906265 -11.0028 -88.348679 -12.626342 -77.771599
-42.627541 22.966618 -13.293647 -77.200089 -12.62896 -77.731789 -10.125745 -84.652794
310000000 -1.6601611 28.71936 -80.987427 -76.15593 -78.53743 -78.953133 -79.196831 56.818066
-40.680962 0.32403862 -10.177865 -86.821243 -12.68047 -79.386398 -13.325504 -79.742882
-41.004448 15.161082 -12.679724 -79.417671 -11.004008 -90.945877 -12.642762 -80.243515
-40.599449 7.4503937 -13.331635 -79.703072 -12.640896 -80.164757 -10.107001 -87.688293
320000000 -1.6523085 22.276304 -80.678619 -46.840927 -77.384285 -127.19017 -81.740494 168.58044
-39.157681 -12.563047 -10.113715 -89.56089 -12.689977 -81.938545 -13.341806 -82.355743
-40.211285 2.1525872 -12.726033 -81.861465 -10.972713 -93.866623 -12.679156 -82.871803
-39.58667 -9.0802574 -13.368983 -82.196442 -12.669399 -82.782974 -10.116432 -90.179375
330000000 -1.6539584 15.707441 -77.684357 -70.880737 -105.52584 28.067009 -78.611336 75.517151
-38.339054 -25.754427 -10.101672 -92.389458 -12.732031 -84.505234 -13.361465 -84.722771
-38.763176 -13.782725 -12.716719 -84.457886 -10.949128 -96.635414 -12.687095 -85.271103
-38.50592 -21.620333 -13.35883 -84.846298 -12.69538 -85.432526 -10.098029 -92.890251
340000000 -1.6379443 9.6375818 -80.356369 19.462118 -85.926338 39.176781 -75.928543 -150.99153
-37.143078 -41.554256 -10.074512 -94.870346 -12.733576 -87.031586 -13.38771 -87.419289
-37.510189 -30.10837 -12.742163 -87.024895 -10.893938 -99.220192 -12.714117 -87.947556
-36.990372 -36.508209 -13.379373 -87.390404 -12.71291 -87.908157 -10.079153 -95.703735
350000000 -1.6534905 3.4366391 -85.953804 -27.226185 -85.056374 -50.125542 -76.937088 -42.014805
-36.45142 -57.075756 -10.059105 -97.679863 -12.765367 -89.712944 -13.410033 -90.095276
-36.384907 -42.058628 -12.746512 -89.621735 -10.820543 -101.90987 -12.726469 -90.623451
-36.290737 -50.197674 -13.383283 -90.050598 -12.724176 -90.624863 -10.047506 -98.634804
360000000 -1.6490551 -2.8184447 -89.19767 1.6444412 -80.344658 -45.884495 -80.940773 68.918236
-34.947327 -70.679489 -10.036551 -100.49303 -12.780969 -92.213951 -13.422815 -92.602982
-35.441227 -56.491817 -12.778631 -92.20266 -10.780389 -104.35824 -12.743275 -93.128983
-35.114483 -65.175079 -13.416922 -92.644516 -12.729567 -93.175179 -10.004877 -101.05505
370000000 -1.6653485 -9.0505981 -84.271568 -147.79245 -83.013901 -14.241354 -80.123726 -148.39284
-34.174004 -81.895805 -9.9997921 -103.1021 -12.812957 -94.804237 -13.44603 -95.084671
-34.263599 -68.568253 -12.786082 -94.82058 -10.744766 -107.12405 -12.751919 -95.69619
-33.81271 -75.903297 -13.436077 -95.209023 -12.78092 -95.775269 -9.9907389 -103.54787
380000000 -1.6914476 -15.174483 -92.018723 -79.717461 -74.93824 34.992455 -93.400925 -172.87219
-33.435894 -92.655914 -10.02274 -105.71197 -12.841929 -97.288811 -13.456172 -97.715561
-33.092552 -83.817764 -12.823121 -97.29039 -10.736616 -109.81402 -12.781395 -98.278114
-32.853794 -90.294785 -13.470944 -97.697495 -12.778378 -98.299072 -9.9608002 -106.47277
390000000 -1.6890612 -21.483761 -83.984886 73.046158 -80.663361 -142.57979 -77.259987 -6.7721181
-32.231617 -110.05251 -9.9182882 -108.32006 -12.856631 -99.795906 -13.474425 -100.32806
-33.339596 -94.043182 -12.843218 -99.893242 -10.721269 -112.57747 -12.806162 -100.97507
-33.155762 -102.64602 -13.476003 -100.25082 -12.805426 -100.79186 -9.9247913 -109.36804
400000000 -1.7289977 -27.71847 -77.562302 60.702564 -85.483711 -64.172997 -84.221451 83.222244
-31.753365 -123.16933 -9.9343491 -111.08116 -12.871572 -102.3992 -13.524692 -102.89413
-32.069714 -105.51456 -12.899258 -102.51128 -10.64387 -115.23045 -12.834446 -103.50681
-31.636354 -114.15257 -13.534367 -102.94987 -12.817542 -103.55284 -9.922678 -111.52644
410000000 -1.7464843 -33.952034 -79.793251 -135.51447 -86.073311 -34.475986 -85.798767 118.15636
-31.064535 -132.66127 -9.9325733 -113.43925 -12.891556 -105.07437 -13.557747 -105.64568
-30.811768 -117.88902 -12.91958 -105.04781 -10.632459 -117.88112 -12.870751 -106.17525
-30.824055 -126.06374 -13.565902 -105.49558 -12.87538 -106.07225 -9.90133 -114.72252
420000000 -1.773919 -40.221634 -78.576088 -123.05438 -90.032623 62.914391 -82.245705 -102.77861
-30.008299 -142.88889 -9.9101601 -116.43906 -12.936636 -107.75626 -13.58334 -108.00666
-30.243189 -130.94598 -12.926171 -107.67445 -10.643614 -121.01182 -12.878808 -108.74351
-29.999451 -137.89792 -13.553274 -108.11595 -12.871531 -108.76322 -9.9069719 -116.96561
430000000 -1.8152339 -46.386452 -92.483543 67.355263 -78.362389 -121.55017 -77.050407 -55.021576
-28.970234 -151.80521 -9.8622236 -118.81028 -12.933751 -110.01261 -13.591462 -110.76913
-29.458643 -144.6142 -12.959384 -110.19219 -10.554697 -123.34644 -12.913686 -111.19535
-29.188953 -150.1488 -13.59789 -110.63732 -12.898183 -111.30825 -9.8548117 -119.66273
440000000 -1.8385291 -52.742966 -81.660347 -167.85068 -77.709251 -70.643318 -76.570427 140.82841
-28.453699 -163.46284 -9.8412514 -121.37926 -12.957066 -112.68389 -13.634525 -113.09708
-28.762041 -154.02028 -12.983824 -112.69111 -10.487349 -126.24754 -12.920368 -113.77872
-28.29686 -160.59972 -13.59866 -113.16852 -12.91982 -113.90114 -9.8088779 -122.04238
450000000 -1.8854702 -58.908825 -82.187157 34.81649 -83.423264 86.778259 -78.153214 49.16711
-27.822475 -173.48563 -9.8412027 -124.17603 -12.997123 -115.30264 -13.629901 -115.71039
-27.567354 -165.85612 -12.980558 -115.34651 -10.452087 -128.39906 -12.938642 -116.41949
-27.470407 -171.32597 -13.60182 -115.83146 -12.947627 -116.32871 -9.7491159 -124.85459
460000000 -1.9485261 -65.15519 -82.518707 72.459427 -74.973167 135.27374 -81.972176 8.7085342
-27.417625 173.55917 -9.8235483 -126.71284 -13.00882 -117.67287 -13.65868 -118.45661
-27.087591 -174.0553 -13.005112 -117.79427 -10.427763 -130.73216 -12.979992 -119.1775
-27.134991 -179.60902 -13.645477 -118.2762 -12.949023 -119.03275 -9.7945776 -127.50287
470000000 -1.9888136 -71.583855 -71.447571 57.276283 -78.931404 -50.674561 -78.858955 143.36224
-26.370909 164.96187 -9.7783308 -129.5116 -13.041808 -120.60821 -13.678248 -121.10519
-26.44919 172.00223 -13.078132 -120.6377 -10.383504 -133.78506 -12.989277 -121.92161
-26.339489 167.15982 -13.700394 -121.11061 -12.973551 -121.90417 -9.731185 -130.3681
480000000 -2.0756586 -77.69413 -79.529739 -106.53529 -84.192566 123.30601 -85.812477 -100.18942
-25.369003 152.63249 -9.7351789 -132.12115 -13.069783 -123.18092 -13.724904 -123.7141
-25.670572 162.11821 -13.073007 -123.19468 -10.385406 -136.68297 -13.006576 -124.48824
-25.727081 155.76219 -13.693923 -123.62225 -12.991866 -124.34806 -9.7308941 -132.78596
490000000 -2.1391675 -83.984489 -80.566963 28.27866 -77.578514 -33.127609 -82.731888 169.71555
-25.100157 143.99399 -9.7219601 -134.29997 -13.105659 -125.73339 -13.71162 -126.23898
-24.886692 153.57196 -13.104501 -125.63391 -10.364378 -139.05623 -13.009379 -126.93479
-24.639215 147.63777 -13.735503 -126.16296 -13.01973 -126.9618 -9.6885805 -135.61374
500000000 -2.2170246 -90.173119 -76.593964 -76.887589 -78.233971 55.202793 -76.918388 -51.778271
-24.023659 133.95523 -9.7043953 -136.60594 -13.124686 -128.22958 -13.777067 -128.72958
-24.094019 140.05377 -13.165866 -128.15408 -10.318372 -142.19696 -13.05555 -129.61499
-24.06811 134.50586 -13.787534 -128.85738 -13.050822 -129.55142 -9.6532011 -138.11304
510000000 -2.3231666 -96.581596 -80.436966 -139.84395 -81.759666 -44.74231 -81.283707 168.59686
-23.469662 122.53374 -9.7223091 -139.38762 -13.167593 -130.91946 -13.779401 -131.36568
-23.692093 131.92 -13.147386 -130.89595 -10.279202 -144.14879 -13.077934 -132.20073
-23.502657 126.05984 -13.773608 -131.44711 -13.082373 -132.08957 -9.6355009 -140.74178
520000000 -2.417206 -102.97242 -78.719093 163.52199 -84.345955 -52.523808 -80.471077 -142.41257
-22.821239 113.39193 -9.7077169 -141.93968 -13.193922 -133.52037 -13.81164 -134.11137
-22.812037 121.30772 -13.199532 -133.42929 -10.272981 -147.30475 -13.10742 -134.92604
-22.711426 115.11486 -13.84144 -134.01097 -13.104767 -134.87196 -9.5729904 -143.34846
530000000 -2.5054846 -109.45093 -80.456749 62.232708 -99.423897 -93.130814 -82.829216 148.4845
-21.858839 101.6686 -9.7152748 -144.9184 -13.234421 -136.06 -13.851996 -136.77342
-22.037394 110.35396 -13.236282 -136.06879 -10.200213 -149.57014 -13.141175 -137.47842
-21.936625 104.67494 -13.865099 -136.70615 -13.154201 -137.44374 -9.5703678 -145.98236
540000000 -2.621336 -116.03194 -86.31041 138.26753 -76.537903 19.442749 -85.09185 -158.63872
-21.252863 90.49839 -9.6365337 -147.58479 -13.252631 -138.76382 -13.872972 -139.30312
-21.437752 98.219948 -13.271841 -138.83348 -10.180571 -152.21193 -13.151987 -140.11224
-21.270075 93.262856 -13.901965 -139.32397 -13.163482 -140.10895 -9.5635014 -148.15288
