!Keysight Technologies,P5024B,MY61400385,A.19.30.21
!Date: Tuesday, September 30, 2025 12:57:03
!Correction: S11(C  4-Port  ) 
!S12(C  4-Port  ) 
!S13(C  4-Port  ) 
!S14(C  4-Port  ) 
!S21(C  4-Port  ) 
!S22(C  4-Port  ) 
!S23(C  4-Port  ) 
!S24(C  4-Port  ) 
!S31(C  4-Port  ) 
!S32(C  4-Port  ) 
!S33(C  4-Port  ) 
!S34(C  4-Port  ) 
!S41(C  4-Port  ) 
!S42(C  4-Port  ) 
!S43(C  4-Port  ) 
!S44(C  4-Port  ) 
!S4P File: Measurements: <S11,S12,S13,S14>,
!<S21,S22,S23,S24>,
!<S31,S32,S33,S34>,
!<S41,S42,S43,S44>:
# Hz S  dB   R 50
10000000 -0.12078491 -24.337215 -82.677261 142.60744 -81.479507 28.558649 -82.578049 20.35663
-78.278175 -98.70282 -10.614657 -2.8880229 -12.316223 -2.3341482 -12.969143 -2.3894851
-81.152145 39.26746 -12.296567 -2.413372 -11.819992 -3.2584479 -12.308917 -2.4773569
-78.814194 -49.814293 -12.950776 -2.4159882 -12.307644 -2.3905935 -10.611278 -3.0871253
20000000 -0.26703948 -46.935879 -81.59111 64.260948 -79.026787 2.518429 -91.106285 -142.71561
-85.591202 -94.651291 -10.628417 -5.7059793 -12.308349 -4.9189548 -12.960144 -4.9998217
-78.286743 24.718605 -12.30042 -4.9323874 -11.749 -6.009656 -12.309267 -5.0119905
-75.698006 155.31308 -12.955351 -4.9654379 -12.311249 -5.0110936 -10.630384 -5.7607985
30000000 -0.4199872 -68.439537 -77.318008 -59.317993 -81.789856 -151.42206 -84.807884 -129.22414
-80.05365 106.95765 -10.636396 -8.6273403 -12.321023 -7.6743221 -12.973356 -7.6113462
-80.613495 -112.93874 -12.320858 -7.7448959 -11.751987 -8.7682199 -12.310901 -7.7441597
-85.972725 76.800858 -12.980197 -7.7691627 -12.319551 -7.8207502 -10.620914 -8.5072165
40000000 -0.61327773 -87.984848 -71.019897 -9.9032602 -92.152176 169.13692 -86.384346 -81.86293
-69.412544 -119.44768 -10.618276 -11.188594 -12.334287 -10.304279 -13.002669 -10.256608
-67.411324 -164.12015 -12.320896 -10.318468 -11.720764 -11.939993 -12.331622 -10.336948
-73.419067 -158.86626 -12.970802 -10.341955 -12.328147 -10.499042 -10.595733 -11.241119
50000000 -0.73710382 -105.6796 -75.74736 147.784 -86.38736 -39.58408 -79.651833 97.551743
-67.762772 -51.736717 -10.628326 -14.05022 -12.344712 -13.022103 -12.970288 -12.849171
-66.895447 -82.634232 -12.347952 -12.884168 -11.751161 -14.755354 -12.310228 -12.97744
-71.102592 -69.647263 -12.992547 -12.920437 -12.331953 -13.156914 -10.551246 -14.343529
60000000 -0.88196361 -121.89706 -85.752777 -9.0591831 -79.740692 -114.95389 -83.295197 -75.382492
-80.329521 109.28945 -10.578297 -16.898811 -12.319687 -15.400094 -12.996213 -15.493572
-66.583534 78.313995 -12.357272 -15.389399 -11.777151 -18.032791 -12.336356 -15.603265
-74.653137 77.597275 -12.990549 -15.503577 -12.317736 -15.53936 -10.570595 -17.37825
70000000 -1.0369523 -136.30699 -75.33699 -56.18174 -77.619629 -94.697525 -81.483452 -75.459305
-72.805992 -128.3929 -10.59686 -20.048958 -12.35662 -17.843243 -12.994711 -18.01799
-70.222939 -91.185165 -12.342417 -18.018486 -11.716439 -20.954777 -12.335796 -18.144434
-69.76033 -106.0155 -12.996305 -18.019829 -12.353039 -18.022741 -10.593894 -19.9039
80000000 -1.154038 -149.46469 -91.752022 130.58783 -80.905083 8.7775097 -82.083572 -157.66125
-68.123383 82.250801 -10.563357 -22.504725 -12.357617 -20.508188 -13.023678 -20.594622
-81.681496 145.17978 -12.353032 -20.512163 -11.707709 -23.672596 -12.363151 -20.721828
-71.797417 150.51385 -13.014483 -20.548336 -12.353765 -20.665701 -10.569073 -22.776196
90000000 -1.2448707 -161.48946 -74.882187 102.94705 -77.714394 73.759743 -82.999405 48.908001
-63.615379 -76.481453 -10.556377 -25.357815 -12.365524 -23.069691 -13.017426 -23.123537
-60.965382 -113.76919 -12.357339 -23.060497 -11.727873 -26.67111 -12.353276 -23.287321
-63.898354 -94.97229 -13.011912 -23.183308 -12.361318 -23.35873 -10.544223 -25.509224
100000000 -1.3259294 -172.76765 -91.48394 -162.65633 -80.980598 28.550068 -83.128395 71.469666
-69.446144 -26.68557 -10.550378 -28.24972 -12.387951 -25.641884 -13.027999 -25.749626
-65.377922 -72.633278 -12.378528 -25.719675 -11.688428 -30.067917 -12.375885 -25.947741
-64.877716 -86.929054 -13.02997 -25.813334 -12.380741 -25.964409 -10.544779 -28.400623
110000000 -1.3839898 176.68524 -77.73275 -146.56203 -78.769547 -72.39225 -77.392357 94.699585
-76.277519 -1.1027465 -10.572367 -31.130394 -12.389632 -28.338327 -13.031245 -28.527563
-70.580879 -71.584663 -12.380728 -28.32016 -11.651947 -32.696087 -12.386804 -28.69453
-75.442741 -105.56075 -13.034656 -28.431545 -12.398398 -28.609228 -10.530236 -31.592648
120000000 -1.4536974 166.8094 -82.040504 -67.912415 -73.499268 171.88783 -83.394814 147.09984
-69.059906 127.88181 -10.525293 -34.035686 -12.397961 -30.827604 -13.040699 -31.009424
-78.829102 -34.687572 -12.379095 -30.821148 -11.624887 -35.725266 -12.383154 -31.220285
-76.187721 173.08307 -13.033381 -31.014462 -12.384174 -31.131805 -10.547736 -34.472401
130000000 -1.5331889 157.51807 -78.187637 -46.585831 -78.672966 -154.75676 -79.86927 -118.35045
-73.237579 -89.818695 -10.513987 -36.821655 -12.395243 -33.453838 -13.048076 -33.542568
-66.654953 -122.34146 -12.391552 -33.378136 -11.646546 -38.882179 -12.388797 -33.761288
-68.181808 -60.659302 -13.040641 -33.465324 -12.392268 -33.829464 -10.510484 -37.160431
140000000 -1.5955787 148.56834 -79.422089 -177.61932 -89.182816 0.10853013 -90.183754 46.669979
-66.355484 42.662556 -10.565886 -39.794098 -12.4376 -35.979427 -13.079253 -36.024246
-69.382866 12.408852 -12.419293 -35.925026 -11.584789 -42.174747 -12.408827 -36.185673
-70.277328 -30.483524 -13.069474 -36.127911 -12.430909 -36.320305 -10.499105 -39.953911
150000000 -1.6687995 139.90266 -80.525711 68.015678 -80.359459 -142.54909 -75.526352 110.6917
-72.723221 173.89333 -10.525598 -42.938503 -12.442858 -38.356213 -13.085705 -38.709099
-76.30394 -60.852978 -12.437167 -38.619556 -11.599168 -44.669239 -12.432524 -38.941662
-68.602959 -118.11064 -13.07995 -38.755993 -12.421674 -38.79213 -10.503937 -43.145065
160000000 -1.794578 131.8468 -89.102509 -83.913544 -79.807442 46.787315 -75.522255 -98.907616
-74.083244 -32.12788 -10.539796 -45.474644 -12.454479 -41.004902 -13.084645 -41.203369
-77.749725 -66.124207 -12.442794 -41.071449 -11.568511 -47.970543 -12.422442 -41.477318
-78.36718 55.911911 -13.09382 -41.246159 -12.44845 -41.467049 -10.443387 -45.490143
170000000 -1.8488433 124.64563 -83.357452 -60.154408 -78.251915 128.73427 -89.103172 -154.3333
-68.120239 -41.214035 -10.537138 -48.325031 -12.450818 -43.700211 -13.101356 -43.869789
-75.482895 -111.33422 -12.468427 -43.602676 -11.519629 -51.048023 -12.436088 -44.141979
-88.051857 150.524 -13.112585 -43.798176 -12.433957 -44.181839 -10.461997 -48.415997
180000000 -1.8460548 117.56507 -79.725883 -162.46863 -80.998268 -109.96587 -75.783195 13.49757
-59.45573 -156.84906 -10.462756 -51.080132 -12.461047 -46.142948 -13.107516 -46.387932
-61.869778 152.23038 -12.45108 -46.234634 -11.507982 -53.737583 -12.447382 -46.618847
-61.154919 158.54301 -13.114663 -46.422211 -12.445599 -46.644623 -10.449567 -51.057011
190000000 -1.8067547 110.4512 -78.304985 18.380878 -76.239517 32.477638 -84.585373 119.99284
-58.430019 110.66722 -10.444954 -53.987492 -12.474983 -48.639946 -13.141608 -49.038162
-68.320137 16.066441 -12.486305 -48.788177 -11.470701 -56.610806 -12.474982 -49.32272
-61.408501 47.595078 -13.141446 -48.965412 -12.462075 -49.138992 -10.425059 -54.299286
200000000 -1.7389327 103.18434 -86.696213 93.390015 -84.977669 -51.763134 -92.80587 77.299637
-57.700546 -168.99635 -10.404084 -56.840435 -12.508801 -51.273853 -13.139591 -51.3451
-57.547043 159.4718 -12.49646 -51.245655 -11.404884 -59.471748 -12.474157 -51.732403
-56.955624 167.87273 -13.145826 -51.527405 -12.477303 -51.80489 -10.385483 -57.07626
210000000 -1.6995835 95.957687 -80.58696 -32.929142 -86.94986 -20.236708 -80.599846 76.882095
-70.650528 135.57196 -10.389335 -59.395012 -12.497015 -53.736191 -13.173709 -53.997292
-65.316353 -170.69899 -12.514421 -53.772743 -11.401054 -62.230572 -12.513437 -54.335136
-66.215874 -179.08882 -13.163751 -54.056194 -12.496306 -54.326614 -10.389484 -59.720203
220000000 -1.6829364 89.068672 -81.150772 -31.608675 -77.956261 -4.4968462 -82.670265 -173.27225
-59.636284 117.17902 -10.360592 -62.383327 -12.517715 -56.310699 -13.16924 -56.648563
-63.40736 155.65576 -12.524749 -56.451122 -11.333267 -65.270363 -12.508409 -57.016808
-59.099064 129.32674 -13.184175 -56.698963 -12.509388 -56.924625 -10.375782 -62.84169
230000000 -1.6770618 82.155876 -90.33242 -46.878456 -76.361748 155.722 -85.713135 87.288803
-55.512341 121.47732 -10.337803 -65.255966 -12.524731 -58.852448 -13.195281 -59.316158
-55.528313 110.47457 -12.53091 -58.924751 -11.299708 -67.955154 -12.545488 -59.696415
-52.451805 100.68772 -13.18319 -59.146469 -12.511756 -59.525387 -10.366927 -65.584511
240000000 -1.6565717 75.344597 -78.689583 -96.382492 -73.325348 -174.37015 -83.05455 -38.917347
-62.56702 76.485992 -10.316581 -67.926659 -12.53207 -61.544003 -13.181392 -61.819088
-56.234261 155.01778 -12.517817 -61.683739 -11.321564 -71.426369 -12.528264 -62.278206
-59.258991 111.29345 -13.16731 -61.901234 -12.520182 -62.213112 -10.305397 -68.262398
250000000 -1.6480321 68.5131 -78.287384 -173.20044 -73.834549 103.61195 -83.192741 -14.598753
-53.253788 89.549332 -10.286983 -70.92337 -12.572695 -64.039268 -13.226689 -64.240875
-52.686069 101.68459 -12.558966 -64.148148 -11.271466 -74.141602 -12.526626 -64.77066
-53.30217 96.417984 -13.212744 -64.402794 -12.559443 -64.683525 -10.322349 -70.8937
260000000 -1.6728199 62.007954 -79.171249 -134.74355 -77.414131 144.17578 -76.023537 -40.778694
-48.947212 61.607933 -10.285388 -73.457954 -12.584938 -66.739021 -13.24462 -66.795753
-52.368511 72.796242 -12.593127 -66.523941 -11.204715 -77.255203 -12.567985 -67.208069
-51.621101 66.145462 -13.240638 -66.801559 -12.571366 -67.393074 -10.274376 -73.7715
270000000 -1.6262821 55.277687 -75.023331 -48.294476 -81.74617 118.21815 -75.005569 -87.647545
-48.455704 55.260529 -10.254445 -76.034981 -12.607116 -69.188332 -13.250268 -69.342155
-50.114712 85.152946 -12.601176 -69.121124 -11.193317 -80.129036 -12.573069 -69.781479
-48.956398 68.29985 -13.253591 -69.369934 -12.5832 -69.90451 -10.27045 -76.45256
280000000 -1.6488456 48.837017 -74.319099 76.545265 -84.133652 -159.70447 -87.046661 132.2229
-45.614468 44.767391 -10.207621 -78.701485 -12.607719 -71.730667 -13.262567 -72.006264
-46.547199 59.60202 -12.626348 -71.726563 -11.108817 -82.802757 -12.597363 -72.552391
-46.335133 46.164207 -13.271846 -72.033516 -12.592167 -72.514214 -10.196114 -79.433601
290000000 -1.6364069 42.352383 -89.765678 -51.630352 -80.85154 -37.071594 -78.054657 -39.947964
-44.21468 35.172974 -10.204412 -81.647026 -12.629555 -74.327835 -13.283944 -74.591431
-44.416286 39.010033 -12.62208 -74.237419 -11.09397 -85.548332 -12.619597 -75.024117
-44.117542 33.836834 -13.26246 -74.582634 -12.6074 -75.116417 -10.193931 -82.188248
300000000 -1.6521714 35.943153 -91.275215 58.88205 -75.597359 23.668587 -82.616333 86.495979
-43.488575 11.902925 -10.175607 -84.486893 -12.657264 -76.896423 -13.302052 -77.203117
-43.140415 31.771715 -12.658978 -76.904358 -11.049569 -88.09935 -12.618663 -77.668251
-43.020672 23.474518 -13.298731 -77.19693 -12.618283 -77.707275 -10.149233 -84.923401
310000000 -1.6228278 29.644342 -80.963463 -157.99207 -84.605637 -19.524807 -77.020981 -174.70772
-40.844967 6.7372603 -10.167079 -87.085976 -12.681701 -79.441536 -13.326852 -79.662178
-41.803192 15.715094 -12.659052 -79.317154 -10.960765 -90.920334 -12.647325 -80.169296
-41.201118 2.6434596 -13.316184 -79.646301 -12.649088 -80.245728 -10.135064 -87.41584
320000000 -1.6334798 23.252514 -86.144562 -159.0609 -81.242989 -172.62181 -81.845032 144.79416
-40.142551 -12.723338 -10.105443 -89.506416 -12.680594 -82.050125 -13.337536 -82.147881
-40.163933 -1.2833624 -12.716424 -81.89653 -10.943174 -93.651604 -12.669829 -82.67717
-39.965858 -10.178475 -13.348287 -82.188545 -12.656945 -82.872421 -10.099622 -90.074364
330000000 -1.6358179 16.932491 -82.278214 177.44946 -94.017204 -59.657352 -76.529053 -31.814188
-38.343285 -26.031673 -10.093756 -92.517914 -12.713054 -84.482521 -13.371975 -84.706688
-38.99659 -13.291675 -12.699719 -84.55246 -10.911213 -96.500572 -12.695683 -85.3004
-38.723045 -22.741098 -13.341947 -84.934357 -12.670804 -85.361557 -10.104748 -92.843964
340000000 -1.6296781 10.679368 -80.33963 29.926399 -105.25934 136.36372 -82.702049 -91.199707
-37.438583 -42.026573 -10.126377 -94.809799 -12.737811 -87.008118 -13.367324 -87.499184
-37.79475 -30.935007 -12.741705 -87.1408 -10.90441 -99.236809 -12.694007 -87.990837
-37.593491 -40.22533 -13.382762 -87.47377 -12.705046 -87.92675 -10.051968 -95.80658
350000000 -1.6084793 4.5178866 -82.462006 104.72542 -75.547638 25.149828 -79.499153 -131.76997
-36.509369 -56.562588 -10.13239 -97.747337 -12.758828 -89.708817 -13.411793 -90.032768
-36.664013 -44.306438 -12.752681 -89.67395 -10.867037 -101.88383 -12.716948 -90.594719
-36.550694 -53.465832 -13.39293 -90.036995 -12.727094 -90.682137 -10.025739 -98.154701
360000000 -1.6338724 -1.8226153 -79.118973 -73.234108 -74.459358 -116.97585 -90.606644 -45.049847
-35.643173 -67.713058 -10.064233 -100.61486 -12.790256 -92.267433 -13.429739 -92.616188
-35.680767 -57.790852 -12.789707 -92.282326 -10.808481 -104.81197 -12.753039 -93.1866
-35.619881 -66.739754 -13.419724 -92.70739 -12.737652 -93.160782 -10.022345 -100.96758
370000000 -1.6408366 -7.8046045 -94.867012 -137.35794 -87.225853 -27.845205 -75.686974 102.57973
-34.615078 -83.917213 -10.043914 -103.05185 -12.802453 -94.862114 -13.424065 -95.215401
-34.975796 -68.823944 -12.790441 -94.702454 -10.738428 -107.33827 -12.733882 -95.680511
-34.929661 -78.830742 -13.430522 -95.163437 -12.770432 -95.866989 -9.9862928 -103.64738
380000000 -1.6413186 -14.044805 -76.885513 9.5830479 -82.921059 170.60497 -79.480026 -133.48985
-33.832073 -92.872131 -9.9959688 -105.76669 -12.830758 -97.306725 -13.464846 -97.762688
-33.936287 -81.752396 -12.799268 -97.373116 -10.716537 -109.6862 -12.780866 -98.380341
-34.219906 -90.466141 -13.438433 -97.713333 -12.766921 -98.279572 -9.9818277 -106.40287
390000000 -1.6573235 -20.312727 -82.272858 80.924538 -73.748436 -42.523617 -87.82402 -46.560589
-33.150852 -111.48743 -9.9770203 -108.574 -12.841064 -99.805031 -13.479799 -100.20805
-33.594109 -92.099396 -12.851566 -99.84304 -10.700234 -112.40901 -12.792311 -100.89919
-33.357635 -100.68713 -13.487796 -100.23035 -12.792406 -100.74378 -9.9401617 -109.13183
400000000 -1.6794589 -26.285625 -73.93029 87.010979 -78.5634 -169.30708 -83.129028 -129.58823
-32.23336 -117.37269 -9.946805 -110.69183 -12.880708 -102.55448 -13.507337 -102.89595
-32.097359 -108.4677 -12.865957 -102.48364 -10.687793 -114.97841 -12.826918 -103.47391
-32.086044 -116.89561 -13.499787 -102.90374 -12.829988 -103.47698 -9.9098158 -111.64436
410000000 -1.6943777 -32.67128 -78.804848 153.79497 -75.824844 146.86404 -84.531639 42.150322
-31.58507 -132.37405 -9.9428234 -113.79527 -12.880268 -105.11541 -13.524203 -105.50643
-31.368086 -115.84897 -12.896144 -105.18047 -10.629601 -117.85854 -12.828095 -106.29253
-31.397509 -123.7101 -13.541106 -105.54069 -12.852107 -106.23306 -9.8658514 -114.50166
420000000 -1.7152709 -38.81916 -86.678528 -40.601261 -86.81189 139.74081 -74.389648 147.23225
-30.843658 -141.44141 -9.8990822 -116.32326 -12.91866 -107.74173 -13.547588 -108.13438
-30.413832 -128.91876 -12.915555 -107.63748 -10.621686 -120.97156 -12.862648 -108.84231
-30.471426 -136.52762 -13.553173 -108.00777 -12.863316 -108.82523 -9.8874235 -117.11662
430000000 -1.7326736 -45.078701 -80.112862 91.769409 -81.638908 -155.02524 -88.639732 126.35894
-29.555971 -150.8573 -9.8962727 -118.73366 -12.915522 -109.96801 -13.563559 -110.65302
-29.744511 -144.19727 -12.937422 -110.25182 -10.568117 -123.3904 -12.881886 -111.16882
-29.713009 -149.95285 -13.559902 -110.68788 -12.865862 -111.28517 -9.8332376 -119.51314
440000000 -1.7902836 -51.196556 -77.843399 -78.275528 -78.017006 94.177071 -80.086891 54.638466
-28.677128 -161.48503 -9.8778791 -121.21716 -12.955616 -112.72751 -13.596859 -113.18703
-29.152271 -154.69278 -12.957235 -112.65603 -10.531284 -125.78976 -12.915384 -114.05984
-29.238201 -161.43193 -13.587083 -113.01579 -12.899775 -113.84852 -9.8054667 -122.03516
450000000 -1.8238947 -57.491772 -80.322159 -60.855156 -76.613045 130.00548 -91.14109 -37.198196
-28.021309 -175.43391 -9.8386908 -124.09806 -12.978147 -115.11191 -13.612914 -115.65749
-28.590977 -163.81508 -12.969462 -115.33224 -10.473491 -128.56755 -12.934148 -116.49468
-28.567553 -172.10162 -13.610562 -115.79253 -12.900534 -116.29758 -9.790843 -124.98697
460000000 -1.8522594 -63.516827 -79.292183 132.72772 -82.101425 -70.477226 -74.459229 -141.97017
-27.29248 173.29578 -9.7727718 -126.66139 -13.029128 -117.97105 -13.656215 -118.17521
-28.058189 -175.23099 -12.995253 -117.99438 -10.493535 -131.32726 -12.935475 -118.9269
-28.040293 178.59767 -13.630656 -118.48041 -12.943908 -119.11713 -9.7178526 -127.20289
470000000 -1.9021902 -69.76017 -81.918564 154.48373 -83.073273 111.66724 -101.53874 99.974998
-27.289595 166.36282 -9.7613382 -129.08659 -13.038113 -120.49485 -13.686805 -121.0274
-26.402294 176.23827 -13.049227 -120.69176 -10.427239 -134.33952 -12.980696 -121.76483
-26.416986 169.86282 -13.679748 -121.1402 -12.965846 -121.90575 -9.7636108 -130.29971
480000000 -2.0042355 -76.035835 -83.317276 50.926891 -86.68663 -48.978821 -79.421974 -30.368784
-25.892445 155.60841 -9.786622 -131.67633 -13.072657 -123.17886 -13.699838 -123.72313
-25.913221 161.72986 -13.053386 -123.16178 -10.406308 -136.81451 -12.97664 -124.59723
-25.908758 155.43738 -13.693745 -123.6039 -12.990919 -124.42264 -9.6932764 -132.72765
490000000 -2.0568244 -82.383385 -75.456833 149.89166 -82.363045 21.389919 -72.749878 -145.73695
-25.403664 143.84212 -9.7548885 -134.23987 -13.092228 -125.71854 -13.731818 -126.26251
-25.374805 154.33905 -13.110573 -125.63564 -10.34221 -139.16939 -13.001348 -127.01451
-25.255457 147.72369 -13.732483 -126.14862 -13.013858 -126.96747 -9.6877604 -135.31523
500000000 -2.1147189 -88.710464 -79.640785 -125.30032 -81.453194 -144.45168 -78.192154 168.97386
-24.544624 135.4164 -9.7195339 -136.8019 -13.136809 -128.15715 -13.774693 -128.78784
-24.574783 142.77869 -13.135615 -128.23219 -10.309434 -141.61018 -13.057982 -129.53769
-24.394714 136.14618 -13.756297 -128.85001 -13.045729 -129.40196 -9.6946907 -138.29141
510000000 -2.1938324 -94.896149 -79.217438 -4.9992013 -84.454628 61.138069 -77.94548 156.92795
-23.79421 124.34728 -9.7274199 -139.35678 -13.138985 -130.91434 -13.777615 -131.42101
-23.969391 132.56111 -13.158559 -130.94423 -10.279695 -144.47195 -13.068073 -132.2796
-23.806995 126.38104 -13.786967 -131.48685 -13.051 -132.25766 -9.6346407 -140.96269
520000000 -2.3323116 -101.15266 -88.569565 174.99597 -79.337563 -143.1786 -89.297035 -155.24858
-23.294107 114.32576 -9.7163219 -142.25984 -13.181738 -133.45395 -13.802657 -134.09406
-23.198399 123.09007 -13.187082 -133.41972 -10.235452 -146.71503 -13.095078 -134.86664
-23.141132 116.74451 -13.830176 -134.03894 -13.095709 -134.84358 -9.6295738 -143.24753
530000000 -2.3799579 -107.62558 -76.110321 -130.02972 -81.025345 39.27565 -77.417931 -129.26611
-22.244202 103.44183 -9.6700602 -144.69307 -13.230989 -136.16721 -13.825798 -136.86588
-22.473238 111.13212 -13.21539 -136.1138 -10.236064 -149.50638 -13.129343 -137.49078
-22.45891 104.99783 -13.834471 -136.63483 -13.133987 -137.44151 -9.5629168 -145.92749
540000000 -2.490835 -114.19753 -74.945786 163.76237 -78.413826 68.894402 -71.263893 -46.508694
-21.54948 92.574951 -9.6280537 -147.59303 -13.24949 -138.71014 -13.87073 -139.33456
-21.920818 100.79871 -13.237614 -138.77341 -10.138905 -152.13762 -13.167744 -140.06502
-21.812635 94.884666 -13.879236 -139.29909 -13.146724 -140.08301 -9.5462132 -148.42728
